Command: /fetools/work_area/frontend/Batch_11/aayush/uvm/axi4_lite/AXI4_Lite_Slave_Verification_UVM/./simv -l simulate.log -cm line+cond+fsm+tgl+branch+assert +UVM_TESTNAME=test
Chronologic VCS simulator copyright 1991-2020
Contains Synopsys proprietary information.
Compiler version Q-2020.03-SP2-8_Full64; Runtime version Q-2020.03-SP2-8_Full64;  Sep 17 10:14 2026
UVM_INFO /fetools/synopsys/installed_tools/vcs/vcs/Q-2020.03-SP2-8/etc/uvm-1.2/base/uvm_root.svh(402) @ 0: reporter [UVM/RELNOTES] 
----------------------------------------------------------------
UVM-1.2.Synopsys
(C) 2007-2014 Mentor Graphics Corporation
(C) 2007-2014 Cadence Design Systems, Inc.
(C) 2006-2014 Synopsys, Inc.
(C) 2011-2013 Cypress Semiconductor Corp.
(C) 2013-2014 NVIDIA Corporation
----------------------------------------------------------------

  ***********       IMPORTANT RELEASE NOTES         ************

  You are using a version of the UVM library that has been compiled
  with `UVM_NO_DEPRECATED undefined.
  See http://www.eda.org/svdb/view.php?id=3313 for more details.

  You are using a version of the UVM library that has been compiled
  with `UVM_OBJECT_DO_NOT_NEED_CONSTRUCTOR undefined.
  See http://www.eda.org/svdb/view.php?id=3770 for more details.

      (Specify +UVM_NO_RELNOTES to turn off this notice)

UVM_INFO @ 0: reporter [RNTST] Running test test...
*Verdi* Loading libsscore_vcs202003.so
FSDB Dumper for VCS, Release Verdi_Q-2020.03-SP2-8, Linux x86_64/64bit, 08/31/2021
(C) 1996 - 2021 by Synopsys, Inc.
*Verdi* FSDB WARNING: The FSDB file already exists. Overwriting the FSDB file may crash the programs that are using this file.
*Verdi* : Create FSDB file 'wave.fsdb'
*Verdi* : Begin traversing the scope (top), layer (0).
*Verdi* : End of traversing.
UVM_INFO /fetools/synopsys/installed_tools/vcs/vcs/Q-2020.03-SP2-8/etc/uvm-1.2/base/uvm_root.svh(589) @ 0: reporter [UVMTOP] UVM testbench topology:
------------------------------------------------------------------
Name                       Type                        Size  Value
------------------------------------------------------------------
uvm_test_top               test                        -     @343 
  env                      environment                 -     @358 
    cvrg                   my_coverage                 -     @519 
      analysis_imp         uvm_analysis_imp            -     @528 
    ip_agent               ip_agent                    -     @370 
      driver               my_driver                   -     @539 
        rsp_port           uvm_analysis_port           -     @558 
        seq_item_port      uvm_seq_item_pull_port      -     @548 
      input_monitor        ip_mon                      -     @705 
        ip_analysis_port   uvm_analysis_port           -     @716 
      sequencer            my_sequencer                -     @568 
        rsp_export         uvm_analysis_export         -     @577 
        seq_item_export    uvm_seq_item_pull_imp       -     @695 
        arbitration_queue  array                       0     -    
        lock_queue         array                       0     -    
        num_last_reqs      integral                    32    'd1  
        num_last_rsps      integral                    32    'd1  
    op_agent               op_agent                    -     @379 
      output_monitor       op_mon                      -     @732 
        op_analysis_port   uvm_analysis_port           -     @742 
    scb                    scoreboard                  -     @388 
      ip_fifo              uvm_tlm_analysis_fifo #(T)  -     @397 
        analysis_export    uvm_analysis_imp            -     @446 
        get_ap             uvm_analysis_port           -     @436 
        get_peek_export    uvm_get_peek_imp            -     @416 
        put_ap             uvm_analysis_port           -     @426 
        put_export         uvm_put_imp                 -     @406 
      op_fifo              uvm_tlm_analysis_fifo #(T)  -     @456 
        analysis_export    uvm_analysis_imp            -     @505 
        get_ap             uvm_analysis_port           -     @495 
        get_peek_export    uvm_get_peek_imp            -     @475 
        put_ap             uvm_analysis_port           -     @485 
        put_export         uvm_put_imp                 -     @465 
------------------------------------------------------------------

10000: RESET ENDED
-------------------PASS:[1]---------------------------
UVM_INFO scoreboard.sv(237) @ 70000: uvm_test_top.env.scb [scoreboard] [70000] INPUT
UVM_INFO scoreboard.sv(238) @ 70000: uvm_test_top.env.scb [scoreboard] AWVALID=0 AWREADY=1 AWADDR=24
UVM_INFO scoreboard.sv(239) @ 70000: uvm_test_top.env.scb [scoreboard] WVALID =0 WREADY =1 WDATA=3318518774 WSTRB=15
UVM_INFO scoreboard.sv(240) @ 70000: uvm_test_top.env.scb [scoreboard] BVALID =0 BREADY =1
UVM_INFO scoreboard.sv(241) @ 70000: uvm_test_top.env.scb [scoreboard] ARVALID=0 ARREADY=1 ARADDR=24
UVM_INFO scoreboard.sv(242) @ 70000: uvm_test_top.env.scb [scoreboard] RVALID =0 RREADY =0
UVM_INFO scoreboard.sv(243) @ 70000: uvm_test_top.env.scb [scoreboard] [70000]: REF: WRITE_RESPONSE=0 READ_DATA=0 READ_RESPONSE=0
UVM_INFO scoreboard.sv(244) @ 70000: uvm_test_top.env.scb [scoreboard] [70000]: DUT: WRITE_RESPONSE=0 READ_DATA=0 READ_RESPONSE=0

-------------------PASS:[2]---------------------------
UVM_INFO scoreboard.sv(237) @ 90000: uvm_test_top.env.scb [scoreboard] [90000] INPUT
UVM_INFO scoreboard.sv(238) @ 90000: uvm_test_top.env.scb [scoreboard] AWVALID=0 AWREADY=1 AWADDR=0
UVM_INFO scoreboard.sv(239) @ 90000: uvm_test_top.env.scb [scoreboard] WVALID =0 WREADY =1 WDATA=3135746206 WSTRB=15
UVM_INFO scoreboard.sv(240) @ 90000: uvm_test_top.env.scb [scoreboard] BVALID =0 BREADY =0
UVM_INFO scoreboard.sv(241) @ 90000: uvm_test_top.env.scb [scoreboard] ARVALID=0 ARREADY=1 ARADDR=56
UVM_INFO scoreboard.sv(242) @ 90000: uvm_test_top.env.scb [scoreboard] RVALID =0 RREADY =0
UVM_INFO scoreboard.sv(243) @ 90000: uvm_test_top.env.scb [scoreboard] [90000]: REF: WRITE_RESPONSE=0 READ_DATA=0 READ_RESPONSE=0
UVM_INFO scoreboard.sv(244) @ 90000: uvm_test_top.env.scb [scoreboard] [90000]: DUT: WRITE_RESPONSE=0 READ_DATA=0 READ_RESPONSE=0

-------------------PASS:[3]---------------------------
UVM_INFO scoreboard.sv(237) @ 110000: uvm_test_top.env.scb [scoreboard] [110000] INPUT
UVM_INFO scoreboard.sv(238) @ 110000: uvm_test_top.env.scb [scoreboard] AWVALID=1 AWREADY=1 AWADDR=16
UVM_INFO scoreboard.sv(239) @ 110000: uvm_test_top.env.scb [scoreboard] WVALID =0 WREADY =1 WDATA=1313818620 WSTRB=15
UVM_INFO scoreboard.sv(240) @ 110000: uvm_test_top.env.scb [scoreboard] BVALID =0 BREADY =1
UVM_INFO scoreboard.sv(241) @ 110000: uvm_test_top.env.scb [scoreboard] ARVALID=1 ARREADY=0 ARADDR=40
UVM_INFO scoreboard.sv(242) @ 110000: uvm_test_top.env.scb [scoreboard] RVALID =1 RREADY =1
UVM_INFO scoreboard.sv(243) @ 110000: uvm_test_top.env.scb [scoreboard] [110000]: REF: WRITE_RESPONSE=0 READ_DATA=0 READ_RESPONSE=0
UVM_INFO scoreboard.sv(244) @ 110000: uvm_test_top.env.scb [scoreboard] [110000]: DUT: WRITE_RESPONSE=0 READ_DATA=0 READ_RESPONSE=0

-------------------PASS:[4]---------------------------
UVM_INFO scoreboard.sv(237) @ 130000: uvm_test_top.env.scb [scoreboard] [130000] INPUT
UVM_INFO scoreboard.sv(238) @ 130000: uvm_test_top.env.scb [scoreboard] AWVALID=1 AWREADY=0 AWADDR=60
UVM_INFO scoreboard.sv(239) @ 130000: uvm_test_top.env.scb [scoreboard] WVALID =0 WREADY =1 WDATA=1112016839 WSTRB=15
UVM_INFO scoreboard.sv(240) @ 130000: uvm_test_top.env.scb [scoreboard] BVALID =0 BREADY =0
UVM_INFO scoreboard.sv(241) @ 130000: uvm_test_top.env.scb [scoreboard] ARVALID=1 ARREADY=0 ARADDR=0
UVM_INFO scoreboard.sv(242) @ 130000: uvm_test_top.env.scb [scoreboard] RVALID =0 RREADY =1
UVM_INFO scoreboard.sv(243) @ 130000: uvm_test_top.env.scb [scoreboard] [130000]: REF: WRITE_RESPONSE=0 READ_DATA=0 READ_RESPONSE=0
UVM_INFO scoreboard.sv(244) @ 130000: uvm_test_top.env.scb [scoreboard] [130000]: DUT: WRITE_RESPONSE=0 READ_DATA=0 READ_RESPONSE=0

-------------------PASS:[5]---------------------------
UVM_INFO scoreboard.sv(237) @ 150000: uvm_test_top.env.scb [scoreboard] [150000] INPUT
UVM_INFO scoreboard.sv(238) @ 150000: uvm_test_top.env.scb [scoreboard] AWVALID=1 AWREADY=0 AWADDR=28
UVM_INFO scoreboard.sv(239) @ 150000: uvm_test_top.env.scb [scoreboard] WVALID =0 WREADY =1 WDATA=1810901668 WSTRB=15
UVM_INFO scoreboard.sv(240) @ 150000: uvm_test_top.env.scb [scoreboard] BVALID =0 BREADY =0
UVM_INFO scoreboard.sv(241) @ 150000: uvm_test_top.env.scb [scoreboard] ARVALID=1 ARREADY=1 ARADDR=0
UVM_INFO scoreboard.sv(242) @ 150000: uvm_test_top.env.scb [scoreboard] RVALID =0 RREADY =0
UVM_INFO scoreboard.sv(243) @ 150000: uvm_test_top.env.scb [scoreboard] [150000]: REF: WRITE_RESPONSE=0 READ_DATA=0 READ_RESPONSE=0
UVM_INFO scoreboard.sv(244) @ 150000: uvm_test_top.env.scb [scoreboard] [150000]: DUT: WRITE_RESPONSE=0 READ_DATA=0 READ_RESPONSE=0

-------------------PASS:[6]---------------------------
UVM_INFO scoreboard.sv(237) @ 170000: uvm_test_top.env.scb [scoreboard] [170000] INPUT
UVM_INFO scoreboard.sv(238) @ 170000: uvm_test_top.env.scb [scoreboard] AWVALID=1 AWREADY=0 AWADDR=28
UVM_INFO scoreboard.sv(239) @ 170000: uvm_test_top.env.scb [scoreboard] WVALID =0 WREADY =1 WDATA=3954055741 WSTRB=15
UVM_INFO scoreboard.sv(240) @ 170000: uvm_test_top.env.scb [scoreboard] BVALID =0 BREADY =0
UVM_INFO scoreboard.sv(241) @ 170000: uvm_test_top.env.scb [scoreboard] ARVALID=1 ARREADY=0 ARADDR=0
UVM_INFO scoreboard.sv(242) @ 170000: uvm_test_top.env.scb [scoreboard] RVALID =1 RREADY =0
UVM_INFO scoreboard.sv(243) @ 170000: uvm_test_top.env.scb [scoreboard] [170000]: REF: WRITE_RESPONSE=0 READ_DATA=0 READ_RESPONSE=0
UVM_INFO scoreboard.sv(244) @ 170000: uvm_test_top.env.scb [scoreboard] [170000]: DUT: WRITE_RESPONSE=0 READ_DATA=0 READ_RESPONSE=0

-------------------PASS:[7]---------------------------
UVM_INFO scoreboard.sv(237) @ 190000: uvm_test_top.env.scb [scoreboard] [190000] INPUT
UVM_INFO scoreboard.sv(238) @ 190000: uvm_test_top.env.scb [scoreboard] AWVALID=1 AWREADY=0 AWADDR=28
UVM_INFO scoreboard.sv(239) @ 190000: uvm_test_top.env.scb [scoreboard] WVALID =0 WREADY =1 WDATA=3226308248 WSTRB=15
UVM_INFO scoreboard.sv(240) @ 190000: uvm_test_top.env.scb [scoreboard] BVALID =0 BREADY =1
UVM_INFO scoreboard.sv(241) @ 190000: uvm_test_top.env.scb [scoreboard] ARVALID=0 ARREADY=0 ARADDR=32
UVM_INFO scoreboard.sv(242) @ 190000: uvm_test_top.env.scb [scoreboard] RVALID =0 RREADY =1
UVM_INFO scoreboard.sv(243) @ 190000: uvm_test_top.env.scb [scoreboard] [190000]: REF: WRITE_RESPONSE=0 READ_DATA=0 READ_RESPONSE=0
UVM_INFO scoreboard.sv(244) @ 190000: uvm_test_top.env.scb [scoreboard] [190000]: DUT: WRITE_RESPONSE=0 READ_DATA=0 READ_RESPONSE=0

-------------------PASS:[8]---------------------------
UVM_INFO scoreboard.sv(237) @ 210000: uvm_test_top.env.scb [scoreboard] [210000] INPUT
UVM_INFO scoreboard.sv(238) @ 210000: uvm_test_top.env.scb [scoreboard] AWVALID=1 AWREADY=0 AWADDR=28
UVM_INFO scoreboard.sv(239) @ 210000: uvm_test_top.env.scb [scoreboard] WVALID =0 WREADY =1 WDATA=1791435404 WSTRB=15
UVM_INFO scoreboard.sv(240) @ 210000: uvm_test_top.env.scb [scoreboard] BVALID =0 BREADY =1
UVM_INFO scoreboard.sv(241) @ 210000: uvm_test_top.env.scb [scoreboard] ARVALID=1 ARREADY=1 ARADDR=24
UVM_INFO scoreboard.sv(242) @ 210000: uvm_test_top.env.scb [scoreboard] RVALID =0 RREADY =0
UVM_INFO scoreboard.sv(243) @ 210000: uvm_test_top.env.scb [scoreboard] [210000]: REF: WRITE_RESPONSE=0 READ_DATA=0 READ_RESPONSE=0
UVM_INFO scoreboard.sv(244) @ 210000: uvm_test_top.env.scb [scoreboard] [210000]: DUT: WRITE_RESPONSE=0 READ_DATA=0 READ_RESPONSE=0

-------------------PASS:[9]---------------------------
UVM_INFO scoreboard.sv(237) @ 230000: uvm_test_top.env.scb [scoreboard] [230000] INPUT
UVM_INFO scoreboard.sv(238) @ 230000: uvm_test_top.env.scb [scoreboard] AWVALID=1 AWREADY=0 AWADDR=28
UVM_INFO scoreboard.sv(239) @ 230000: uvm_test_top.env.scb [scoreboard] WVALID =0 WREADY =1 WDATA=2744467647 WSTRB=15
UVM_INFO scoreboard.sv(240) @ 230000: uvm_test_top.env.scb [scoreboard] BVALID =0 BREADY =0
UVM_INFO scoreboard.sv(241) @ 230000: uvm_test_top.env.scb [scoreboard] ARVALID=1 ARREADY=0 ARADDR=24
UVM_INFO scoreboard.sv(242) @ 230000: uvm_test_top.env.scb [scoreboard] RVALID =1 RREADY =1
UVM_INFO scoreboard.sv(243) @ 230000: uvm_test_top.env.scb [scoreboard] [230000]: REF: WRITE_RESPONSE=0 READ_DATA=0 READ_RESPONSE=0
UVM_INFO scoreboard.sv(244) @ 230000: uvm_test_top.env.scb [scoreboard] [230000]: DUT: WRITE_RESPONSE=0 READ_DATA=0 READ_RESPONSE=0

-------------------PASS:[10]---------------------------
UVM_INFO scoreboard.sv(237) @ 250000: uvm_test_top.env.scb [scoreboard] [250000] INPUT
UVM_INFO scoreboard.sv(238) @ 250000: uvm_test_top.env.scb [scoreboard] AWVALID=1 AWREADY=0 AWADDR=28
UVM_INFO scoreboard.sv(239) @ 250000: uvm_test_top.env.scb [scoreboard] WVALID =0 WREADY =1 WDATA=1555991162 WSTRB=15
UVM_INFO scoreboard.sv(240) @ 250000: uvm_test_top.env.scb [scoreboard] BVALID =0 BREADY =0
UVM_INFO scoreboard.sv(241) @ 250000: uvm_test_top.env.scb [scoreboard] ARVALID=1 ARREADY=0 ARADDR=48
UVM_INFO scoreboard.sv(242) @ 250000: uvm_test_top.env.scb [scoreboard] RVALID =0 RREADY =1
UVM_INFO scoreboard.sv(243) @ 250000: uvm_test_top.env.scb [scoreboard] [250000]: REF: WRITE_RESPONSE=0 READ_DATA=0 READ_RESPONSE=0
UVM_INFO scoreboard.sv(244) @ 250000: uvm_test_top.env.scb [scoreboard] [250000]: DUT: WRITE_RESPONSE=0 READ_DATA=0 READ_RESPONSE=0

-------------------PASS:[11]---------------------------
UVM_INFO scoreboard.sv(237) @ 270000: uvm_test_top.env.scb [scoreboard] [270000] INPUT
UVM_INFO scoreboard.sv(238) @ 270000: uvm_test_top.env.scb [scoreboard] AWVALID=1 AWREADY=0 AWADDR=28
UVM_INFO scoreboard.sv(239) @ 270000: uvm_test_top.env.scb [scoreboard] WVALID =0 WREADY =1 WDATA=4234027279 WSTRB=15
UVM_INFO scoreboard.sv(240) @ 270000: uvm_test_top.env.scb [scoreboard] BVALID =0 BREADY =0
UVM_INFO scoreboard.sv(241) @ 270000: uvm_test_top.env.scb [scoreboard] ARVALID=1 ARREADY=1 ARADDR=48
UVM_INFO scoreboard.sv(242) @ 270000: uvm_test_top.env.scb [scoreboard] RVALID =0 RREADY =0
UVM_INFO scoreboard.sv(243) @ 270000: uvm_test_top.env.scb [scoreboard] [270000]: REF: WRITE_RESPONSE=0 READ_DATA=0 READ_RESPONSE=0
UVM_INFO scoreboard.sv(244) @ 270000: uvm_test_top.env.scb [scoreboard] [270000]: DUT: WRITE_RESPONSE=0 READ_DATA=0 READ_RESPONSE=0

-------------------FAIL:[1]---------------------------
UVM_INFO scoreboard.sv(252) @ 290000: uvm_test_top.env.scb [scoreboard] [290000] INPUT
UVM_INFO scoreboard.sv(253) @ 290000: uvm_test_top.env.scb [scoreboard] AWVALID=1 AWREADY=0 AWADDR=28
UVM_INFO scoreboard.sv(254) @ 290000: uvm_test_top.env.scb [scoreboard] WVALID =1 WREADY =0 WDATA=1852289854 WSTRB=15
UVM_INFO scoreboard.sv(255) @ 290000: uvm_test_top.env.scb [scoreboard] BVALID =0 BREADY =1
UVM_INFO scoreboard.sv(256) @ 290000: uvm_test_top.env.scb [scoreboard] ARVALID=1 ARREADY=0 ARADDR=48
UVM_INFO scoreboard.sv(257) @ 290000: uvm_test_top.env.scb [scoreboard] RVALID =1 RREADY =0
UVM_INFO scoreboard.sv(258) @ 290000: uvm_test_top.env.scb [scoreboard] [290000]: REF: WRITE_RESPONSE=0 READ_DATA=0 READ_RESPONSE=2
UVM_INFO scoreboard.sv(259) @ 290000: uvm_test_top.env.scb [scoreboard] [290000]: DUT: WRITE_RESPONSE=0 READ_DATA=0 READ_RESPONSE=0

-------------------FAIL:[2]---------------------------
UVM_INFO scoreboard.sv(252) @ 310000: uvm_test_top.env.scb [scoreboard] [310000] INPUT
UVM_INFO scoreboard.sv(253) @ 310000: uvm_test_top.env.scb [scoreboard] AWVALID=1 AWREADY=0 AWADDR=28
UVM_INFO scoreboard.sv(254) @ 310000: uvm_test_top.env.scb [scoreboard] WVALID =1 WREADY =0 WDATA=1180841 WSTRB=15
UVM_INFO scoreboard.sv(255) @ 310000: uvm_test_top.env.scb [scoreboard] BVALID =1 BREADY =1
UVM_INFO scoreboard.sv(256) @ 310000: uvm_test_top.env.scb [scoreboard] ARVALID=1 ARREADY=0 ARADDR=12
UVM_INFO scoreboard.sv(257) @ 310000: uvm_test_top.env.scb [scoreboard] RVALID =0 RREADY =1
UVM_INFO scoreboard.sv(258) @ 310000: uvm_test_top.env.scb [scoreboard] [310000]: REF: WRITE_RESPONSE=0 READ_DATA=0 READ_RESPONSE=2
UVM_INFO scoreboard.sv(259) @ 310000: uvm_test_top.env.scb [scoreboard] [310000]: DUT: WRITE_RESPONSE=0 READ_DATA=0 READ_RESPONSE=0

-------------------FAIL:[3]---------------------------
UVM_INFO scoreboard.sv(252) @ 330000: uvm_test_top.env.scb [scoreboard] [330000] INPUT
UVM_INFO scoreboard.sv(253) @ 330000: uvm_test_top.env.scb [scoreboard] AWVALID=1 AWREADY=0 AWADDR=28
UVM_INFO scoreboard.sv(254) @ 330000: uvm_test_top.env.scb [scoreboard] WVALID =1 WREADY =0 WDATA=1180841 WSTRB=15
UVM_INFO scoreboard.sv(255) @ 330000: uvm_test_top.env.scb [scoreboard] BVALID =1 BREADY =0
UVM_INFO scoreboard.sv(256) @ 330000: uvm_test_top.env.scb [scoreboard] ARVALID=1 ARREADY=1 ARADDR=12
UVM_INFO scoreboard.sv(257) @ 330000: uvm_test_top.env.scb [scoreboard] RVALID =0 RREADY =1
UVM_INFO scoreboard.sv(258) @ 330000: uvm_test_top.env.scb [scoreboard] [330000]: REF: WRITE_RESPONSE=0 READ_DATA=0 READ_RESPONSE=2
UVM_INFO scoreboard.sv(259) @ 330000: uvm_test_top.env.scb [scoreboard] [330000]: DUT: WRITE_RESPONSE=0 READ_DATA=0 READ_RESPONSE=0

-------------------FAIL:[4]---------------------------
UVM_INFO scoreboard.sv(252) @ 350000: uvm_test_top.env.scb [scoreboard] [350000] INPUT
UVM_INFO scoreboard.sv(253) @ 350000: uvm_test_top.env.scb [scoreboard] AWVALID=1 AWREADY=0 AWADDR=28
UVM_INFO scoreboard.sv(254) @ 350000: uvm_test_top.env.scb [scoreboard] WVALID =1 WREADY =0 WDATA=1180841 WSTRB=15
UVM_INFO scoreboard.sv(255) @ 350000: uvm_test_top.env.scb [scoreboard] BVALID =0 BREADY =1
UVM_INFO scoreboard.sv(256) @ 350000: uvm_test_top.env.scb [scoreboard] ARVALID=1 ARREADY=0 ARADDR=12
UVM_INFO scoreboard.sv(257) @ 350000: uvm_test_top.env.scb [scoreboard] RVALID =1 RREADY =1
UVM_INFO scoreboard.sv(258) @ 350000: uvm_test_top.env.scb [scoreboard] [350000]: REF: WRITE_RESPONSE=0 READ_DATA=0 READ_RESPONSE=2
UVM_INFO scoreboard.sv(259) @ 350000: uvm_test_top.env.scb [scoreboard] [350000]: DUT: WRITE_RESPONSE=0 READ_DATA=0 READ_RESPONSE=0

-------------------FAIL:[5]---------------------------
UVM_INFO scoreboard.sv(252) @ 370000: uvm_test_top.env.scb [scoreboard] [370000] INPUT
UVM_INFO scoreboard.sv(253) @ 370000: uvm_test_top.env.scb [scoreboard] AWVALID=1 AWREADY=1 AWADDR=28
UVM_INFO scoreboard.sv(254) @ 370000: uvm_test_top.env.scb [scoreboard] WVALID =1 WREADY =1 WDATA=1180841 WSTRB=15
UVM_INFO scoreboard.sv(255) @ 370000: uvm_test_top.env.scb [scoreboard] BVALID =0 BREADY =0
UVM_INFO scoreboard.sv(256) @ 370000: uvm_test_top.env.scb [scoreboard] ARVALID=0 ARREADY=0 ARADDR=60
UVM_INFO scoreboard.sv(257) @ 370000: uvm_test_top.env.scb [scoreboard] RVALID =0 RREADY =1
UVM_INFO scoreboard.sv(258) @ 370000: uvm_test_top.env.scb [scoreboard] [370000]: REF: WRITE_RESPONSE=0 READ_DATA=0 READ_RESPONSE=2
UVM_INFO scoreboard.sv(259) @ 370000: uvm_test_top.env.scb [scoreboard] [370000]: DUT: WRITE_RESPONSE=0 READ_DATA=0 READ_RESPONSE=0

-------------------FAIL:[6]---------------------------
UVM_INFO scoreboard.sv(252) @ 390000: uvm_test_top.env.scb [scoreboard] [390000] INPUT
UVM_INFO scoreboard.sv(253) @ 390000: uvm_test_top.env.scb [scoreboard] AWVALID=1 AWREADY=0 AWADDR=28
UVM_INFO scoreboard.sv(254) @ 390000: uvm_test_top.env.scb [scoreboard] WVALID =1 WREADY =0 WDATA=1180841 WSTRB=15
UVM_INFO scoreboard.sv(255) @ 390000: uvm_test_top.env.scb [scoreboard] BVALID =0 BREADY =1
UVM_INFO scoreboard.sv(256) @ 390000: uvm_test_top.env.scb [scoreboard] ARVALID=0 ARREADY=1 ARADDR=4
UVM_INFO scoreboard.sv(257) @ 390000: uvm_test_top.env.scb [scoreboard] RVALID =0 RREADY =1
UVM_INFO scoreboard.sv(258) @ 390000: uvm_test_top.env.scb [scoreboard] [390000]: REF: WRITE_RESPONSE=0 READ_DATA=0 READ_RESPONSE=2
UVM_INFO scoreboard.sv(259) @ 390000: uvm_test_top.env.scb [scoreboard] [390000]: DUT: WRITE_RESPONSE=0 READ_DATA=0 READ_RESPONSE=0

-------------------FAIL:[7]---------------------------
UVM_INFO scoreboard.sv(252) @ 410000: uvm_test_top.env.scb [scoreboard] [410000] INPUT
UVM_INFO scoreboard.sv(253) @ 410000: uvm_test_top.env.scb [scoreboard] AWVALID=0 AWREADY=0 AWADDR=20
UVM_INFO scoreboard.sv(254) @ 410000: uvm_test_top.env.scb [scoreboard] WVALID =1 WREADY =0 WDATA=457018491 WSTRB=15
UVM_INFO scoreboard.sv(255) @ 410000: uvm_test_top.env.scb [scoreboard] BVALID =1 BREADY =0
UVM_INFO scoreboard.sv(256) @ 410000: uvm_test_top.env.scb [scoreboard] ARVALID=0 ARREADY=1 ARADDR=36
UVM_INFO scoreboard.sv(257) @ 410000: uvm_test_top.env.scb [scoreboard] RVALID =0 RREADY =0
UVM_INFO scoreboard.sv(258) @ 410000: uvm_test_top.env.scb [scoreboard] [410000]: REF: WRITE_RESPONSE=0 READ_DATA=0 READ_RESPONSE=2
UVM_INFO scoreboard.sv(259) @ 410000: uvm_test_top.env.scb [scoreboard] [410000]: DUT: WRITE_RESPONSE=0 READ_DATA=0 READ_RESPONSE=0

-------------------FAIL:[8]---------------------------
UVM_INFO scoreboard.sv(252) @ 430000: uvm_test_top.env.scb [scoreboard] [430000] INPUT
UVM_INFO scoreboard.sv(253) @ 430000: uvm_test_top.env.scb [scoreboard] AWVALID=0 AWREADY=0 AWADDR=4
UVM_INFO scoreboard.sv(254) @ 430000: uvm_test_top.env.scb [scoreboard] WVALID =1 WREADY =0 WDATA=457018491 WSTRB=15
UVM_INFO scoreboard.sv(255) @ 430000: uvm_test_top.env.scb [scoreboard] BVALID =1 BREADY =0
UVM_INFO scoreboard.sv(256) @ 430000: uvm_test_top.env.scb [scoreboard] ARVALID=1 ARREADY=0 ARADDR=4
UVM_INFO scoreboard.sv(257) @ 430000: uvm_test_top.env.scb [scoreboard] RVALID =1 RREADY =1
UVM_INFO scoreboard.sv(258) @ 430000: uvm_test_top.env.scb [scoreboard] [430000]: REF: WRITE_RESPONSE=0 READ_DATA=0 READ_RESPONSE=2
UVM_INFO scoreboard.sv(259) @ 430000: uvm_test_top.env.scb [scoreboard] [430000]: DUT: WRITE_RESPONSE=0 READ_DATA=0 READ_RESPONSE=0

-------------------FAIL:[9]---------------------------
UVM_INFO scoreboard.sv(252) @ 450000: uvm_test_top.env.scb [scoreboard] [450000] INPUT
UVM_INFO scoreboard.sv(253) @ 450000: uvm_test_top.env.scb [scoreboard] AWVALID=1 AWREADY=0 AWADDR=40
UVM_INFO scoreboard.sv(254) @ 450000: uvm_test_top.env.scb [scoreboard] WVALID =1 WREADY =0 WDATA=457018491 WSTRB=15
UVM_INFO scoreboard.sv(255) @ 450000: uvm_test_top.env.scb [scoreboard] BVALID =0 BREADY =1
UVM_INFO scoreboard.sv(256) @ 450000: uvm_test_top.env.scb [scoreboard] ARVALID=1 ARREADY=0 ARADDR=8
UVM_INFO scoreboard.sv(257) @ 450000: uvm_test_top.env.scb [scoreboard] RVALID =1 RREADY =0
UVM_INFO scoreboard.sv(258) @ 450000: uvm_test_top.env.scb [scoreboard] [450000]: REF: WRITE_RESPONSE=0 READ_DATA=0 READ_RESPONSE=2
UVM_INFO scoreboard.sv(259) @ 450000: uvm_test_top.env.scb [scoreboard] [450000]: DUT: WRITE_RESPONSE=0 READ_DATA=0 READ_RESPONSE=0

-------------------FAIL:[10]---------------------------
UVM_INFO scoreboard.sv(252) @ 470000: uvm_test_top.env.scb [scoreboard] [470000] INPUT
UVM_INFO scoreboard.sv(253) @ 470000: uvm_test_top.env.scb [scoreboard] AWVALID=1 AWREADY=1 AWADDR=40
UVM_INFO scoreboard.sv(254) @ 470000: uvm_test_top.env.scb [scoreboard] WVALID =1 WREADY =1 WDATA=457018491 WSTRB=15
UVM_INFO scoreboard.sv(255) @ 470000: uvm_test_top.env.scb [scoreboard] BVALID =0 BREADY =0
UVM_INFO scoreboard.sv(256) @ 470000: uvm_test_top.env.scb [scoreboard] ARVALID=1 ARREADY=0 ARADDR=8
UVM_INFO scoreboard.sv(257) @ 470000: uvm_test_top.env.scb [scoreboard] RVALID =1 RREADY =0
UVM_INFO scoreboard.sv(258) @ 470000: uvm_test_top.env.scb [scoreboard] [470000]: REF: WRITE_RESPONSE=0 READ_DATA=0 READ_RESPONSE=2
UVM_INFO scoreboard.sv(259) @ 470000: uvm_test_top.env.scb [scoreboard] [470000]: DUT: WRITE_RESPONSE=0 READ_DATA=0 READ_RESPONSE=0

-------------------FAIL:[11]---------------------------
UVM_INFO scoreboard.sv(252) @ 490000: uvm_test_top.env.scb [scoreboard] [490000] INPUT
UVM_INFO scoreboard.sv(253) @ 490000: uvm_test_top.env.scb [scoreboard] AWVALID=1 AWREADY=0 AWADDR=40
UVM_INFO scoreboard.sv(254) @ 490000: uvm_test_top.env.scb [scoreboard] WVALID =1 WREADY =0 WDATA=457018491 WSTRB=15
UVM_INFO scoreboard.sv(255) @ 490000: uvm_test_top.env.scb [scoreboard] BVALID =0 BREADY =0
UVM_INFO scoreboard.sv(256) @ 490000: uvm_test_top.env.scb [scoreboard] ARVALID=1 ARREADY=0 ARADDR=8
UVM_INFO scoreboard.sv(257) @ 490000: uvm_test_top.env.scb [scoreboard] RVALID =1 RREADY =0
UVM_INFO scoreboard.sv(258) @ 490000: uvm_test_top.env.scb [scoreboard] [490000]: REF: WRITE_RESPONSE=0 READ_DATA=0 READ_RESPONSE=2
UVM_INFO scoreboard.sv(259) @ 490000: uvm_test_top.env.scb [scoreboard] [490000]: DUT: WRITE_RESPONSE=0 READ_DATA=0 READ_RESPONSE=0

-------------------FAIL:[12]---------------------------
UVM_INFO scoreboard.sv(252) @ 510000: uvm_test_top.env.scb [scoreboard] [510000] INPUT
UVM_INFO scoreboard.sv(253) @ 510000: uvm_test_top.env.scb [scoreboard] AWVALID=0 AWREADY=0 AWADDR=16
UVM_INFO scoreboard.sv(254) @ 510000: uvm_test_top.env.scb [scoreboard] WVALID =0 WREADY =0 WDATA=1566058204 WSTRB=15
UVM_INFO scoreboard.sv(255) @ 510000: uvm_test_top.env.scb [scoreboard] BVALID =1 BREADY =0
UVM_INFO scoreboard.sv(256) @ 510000: uvm_test_top.env.scb [scoreboard] ARVALID=1 ARREADY=0 ARADDR=8
UVM_INFO scoreboard.sv(257) @ 510000: uvm_test_top.env.scb [scoreboard] RVALID =1 RREADY =0
UVM_INFO scoreboard.sv(258) @ 510000: uvm_test_top.env.scb [scoreboard] [510000]: REF: WRITE_RESPONSE=0 READ_DATA=0 READ_RESPONSE=2
UVM_INFO scoreboard.sv(259) @ 510000: uvm_test_top.env.scb [scoreboard] [510000]: DUT: WRITE_RESPONSE=0 READ_DATA=0 READ_RESPONSE=0

-------------------FAIL:[13]---------------------------
UVM_INFO scoreboard.sv(252) @ 530000: uvm_test_top.env.scb [scoreboard] [530000] INPUT
UVM_INFO scoreboard.sv(253) @ 530000: uvm_test_top.env.scb [scoreboard] AWVALID=0 AWREADY=0 AWADDR=12
UVM_INFO scoreboard.sv(254) @ 530000: uvm_test_top.env.scb [scoreboard] WVALID =1 WREADY =0 WDATA=687054365 WSTRB=15
UVM_INFO scoreboard.sv(255) @ 530000: uvm_test_top.env.scb [scoreboard] BVALID =0 BREADY =1
UVM_INFO scoreboard.sv(256) @ 530000: uvm_test_top.env.scb [scoreboard] ARVALID=1 ARREADY=0 ARADDR=8
UVM_INFO scoreboard.sv(257) @ 530000: uvm_test_top.env.scb [scoreboard] RVALID =0 RREADY =1
UVM_INFO scoreboard.sv(258) @ 530000: uvm_test_top.env.scb [scoreboard] [530000]: REF: WRITE_RESPONSE=0 READ_DATA=0 READ_RESPONSE=2
UVM_INFO scoreboard.sv(259) @ 530000: uvm_test_top.env.scb [scoreboard] [530000]: DUT: WRITE_RESPONSE=0 READ_DATA=0 READ_RESPONSE=0

-------------------FAIL:[14]---------------------------
UVM_INFO scoreboard.sv(252) @ 550000: uvm_test_top.env.scb [scoreboard] [550000] INPUT
UVM_INFO scoreboard.sv(253) @ 550000: uvm_test_top.env.scb [scoreboard] AWVALID=0 AWREADY=1 AWADDR=0
UVM_INFO scoreboard.sv(254) @ 550000: uvm_test_top.env.scb [scoreboard] WVALID =1 WREADY =1 WDATA=687054365 WSTRB=15
UVM_INFO scoreboard.sv(255) @ 550000: uvm_test_top.env.scb [scoreboard] BVALID =0 BREADY =1
UVM_INFO scoreboard.sv(256) @ 550000: uvm_test_top.env.scb [scoreboard] ARVALID=1 ARREADY=1 ARADDR=8
UVM_INFO scoreboard.sv(257) @ 550000: uvm_test_top.env.scb [scoreboard] RVALID =0 RREADY =0
UVM_INFO scoreboard.sv(258) @ 550000: uvm_test_top.env.scb [scoreboard] [550000]: REF: WRITE_RESPONSE=0 READ_DATA=0 READ_RESPONSE=2
UVM_INFO scoreboard.sv(259) @ 550000: uvm_test_top.env.scb [scoreboard] [550000]: DUT: WRITE_RESPONSE=0 READ_DATA=0 READ_RESPONSE=0

-------------------PASS:[12]---------------------------
UVM_INFO scoreboard.sv(237) @ 570000: uvm_test_top.env.scb [scoreboard] [570000] INPUT
UVM_INFO scoreboard.sv(238) @ 570000: uvm_test_top.env.scb [scoreboard] AWVALID=1 AWREADY=0 AWADDR=4
UVM_INFO scoreboard.sv(239) @ 570000: uvm_test_top.env.scb [scoreboard] WVALID =1 WREADY =0 WDATA=687054365 WSTRB=15
UVM_INFO scoreboard.sv(240) @ 570000: uvm_test_top.env.scb [scoreboard] BVALID =0 BREADY =1
UVM_INFO scoreboard.sv(241) @ 570000: uvm_test_top.env.scb [scoreboard] ARVALID=1 ARREADY=0 ARADDR=8
UVM_INFO scoreboard.sv(242) @ 570000: uvm_test_top.env.scb [scoreboard] RVALID =1 RREADY =1
UVM_INFO scoreboard.sv(243) @ 570000: uvm_test_top.env.scb [scoreboard] [570000]: REF: WRITE_RESPONSE=0 READ_DATA=0 READ_RESPONSE=0
UVM_INFO scoreboard.sv(244) @ 570000: uvm_test_top.env.scb [scoreboard] [570000]: DUT: WRITE_RESPONSE=0 READ_DATA=0 READ_RESPONSE=0

-------------------PASS:[13]---------------------------
UVM_INFO scoreboard.sv(237) @ 590000: uvm_test_top.env.scb [scoreboard] [590000] INPUT
UVM_INFO scoreboard.sv(238) @ 590000: uvm_test_top.env.scb [scoreboard] AWVALID=0 AWREADY=0 AWADDR=16
UVM_INFO scoreboard.sv(239) @ 590000: uvm_test_top.env.scb [scoreboard] WVALID =0 WREADY =0 WDATA=1251130290 WSTRB=15
UVM_INFO scoreboard.sv(240) @ 590000: uvm_test_top.env.scb [scoreboard] BVALID =1 BREADY =0
UVM_INFO scoreboard.sv(241) @ 590000: uvm_test_top.env.scb [scoreboard] ARVALID=0 ARREADY=0 ARADDR=52
UVM_INFO scoreboard.sv(242) @ 590000: uvm_test_top.env.scb [scoreboard] RVALID =0 RREADY =1
UVM_INFO scoreboard.sv(243) @ 590000: uvm_test_top.env.scb [scoreboard] [590000]: REF: WRITE_RESPONSE=0 READ_DATA=0 READ_RESPONSE=0
UVM_INFO scoreboard.sv(244) @ 590000: uvm_test_top.env.scb [scoreboard] [590000]: DUT: WRITE_RESPONSE=0 READ_DATA=0 READ_RESPONSE=0

-------------------PASS:[14]---------------------------
UVM_INFO scoreboard.sv(237) @ 610000: uvm_test_top.env.scb [scoreboard] [610000] INPUT
UVM_INFO scoreboard.sv(238) @ 610000: uvm_test_top.env.scb [scoreboard] AWVALID=0 AWREADY=0 AWADDR=12
UVM_INFO scoreboard.sv(239) @ 610000: uvm_test_top.env.scb [scoreboard] WVALID =1 WREADY =0 WDATA=3131434489 WSTRB=15
UVM_INFO scoreboard.sv(240) @ 610000: uvm_test_top.env.scb [scoreboard] BVALID =0 BREADY =1
UVM_INFO scoreboard.sv(241) @ 610000: uvm_test_top.env.scb [scoreboard] ARVALID=1 ARREADY=1 ARADDR=8
UVM_INFO scoreboard.sv(242) @ 610000: uvm_test_top.env.scb [scoreboard] RVALID =0 RREADY =0
UVM_INFO scoreboard.sv(243) @ 610000: uvm_test_top.env.scb [scoreboard] [610000]: REF: WRITE_RESPONSE=0 READ_DATA=0 READ_RESPONSE=0
UVM_INFO scoreboard.sv(244) @ 610000: uvm_test_top.env.scb [scoreboard] [610000]: DUT: WRITE_RESPONSE=0 READ_DATA=0 READ_RESPONSE=0

-------------------PASS:[15]---------------------------
UVM_INFO scoreboard.sv(237) @ 630000: uvm_test_top.env.scb [scoreboard] [630000] INPUT
UVM_INFO scoreboard.sv(238) @ 630000: uvm_test_top.env.scb [scoreboard] AWVALID=0 AWREADY=1 AWADDR=28
UVM_INFO scoreboard.sv(239) @ 630000: uvm_test_top.env.scb [scoreboard] WVALID =1 WREADY =1 WDATA=3131434489 WSTRB=15
UVM_INFO scoreboard.sv(240) @ 630000: uvm_test_top.env.scb [scoreboard] BVALID =0 BREADY =1
UVM_INFO scoreboard.sv(241) @ 630000: uvm_test_top.env.scb [scoreboard] ARVALID=1 ARREADY=0 ARADDR=8
UVM_INFO scoreboard.sv(242) @ 630000: uvm_test_top.env.scb [scoreboard] RVALID =1 RREADY =0
UVM_INFO scoreboard.sv(243) @ 630000: uvm_test_top.env.scb [scoreboard] [630000]: REF: WRITE_RESPONSE=0 READ_DATA=0 READ_RESPONSE=0
UVM_INFO scoreboard.sv(244) @ 630000: uvm_test_top.env.scb [scoreboard] [630000]: DUT: WRITE_RESPONSE=0 READ_DATA=0 READ_RESPONSE=0

-------------------PASS:[16]---------------------------
UVM_INFO scoreboard.sv(237) @ 650000: uvm_test_top.env.scb [scoreboard] [650000] INPUT
UVM_INFO scoreboard.sv(238) @ 650000: uvm_test_top.env.scb [scoreboard] AWVALID=1 AWREADY=0 AWADDR=44
UVM_INFO scoreboard.sv(239) @ 650000: uvm_test_top.env.scb [scoreboard] WVALID =1 WREADY =0 WDATA=3131434489 WSTRB=15
UVM_INFO scoreboard.sv(240) @ 650000: uvm_test_top.env.scb [scoreboard] BVALID =0 BREADY =0
UVM_INFO scoreboard.sv(241) @ 650000: uvm_test_top.env.scb [scoreboard] ARVALID=1 ARREADY=0 ARADDR=48
UVM_INFO scoreboard.sv(242) @ 650000: uvm_test_top.env.scb [scoreboard] RVALID =1 RREADY =0
UVM_INFO scoreboard.sv(243) @ 650000: uvm_test_top.env.scb [scoreboard] [650000]: REF: WRITE_RESPONSE=0 READ_DATA=0 READ_RESPONSE=0
UVM_INFO scoreboard.sv(244) @ 650000: uvm_test_top.env.scb [scoreboard] [650000]: DUT: WRITE_RESPONSE=0 READ_DATA=0 READ_RESPONSE=0

-------------------PASS:[17]---------------------------
UVM_INFO scoreboard.sv(237) @ 670000: uvm_test_top.env.scb [scoreboard] [670000] INPUT
UVM_INFO scoreboard.sv(238) @ 670000: uvm_test_top.env.scb [scoreboard] AWVALID=0 AWREADY=0 AWADDR=4
UVM_INFO scoreboard.sv(239) @ 670000: uvm_test_top.env.scb [scoreboard] WVALID =0 WREADY =0 WDATA=2782066897 WSTRB=15
UVM_INFO scoreboard.sv(240) @ 670000: uvm_test_top.env.scb [scoreboard] BVALID =1 BREADY =0
UVM_INFO scoreboard.sv(241) @ 670000: uvm_test_top.env.scb [scoreboard] ARVALID=1 ARREADY=0 ARADDR=48
UVM_INFO scoreboard.sv(242) @ 670000: uvm_test_top.env.scb [scoreboard] RVALID =0 RREADY =1
UVM_INFO scoreboard.sv(243) @ 670000: uvm_test_top.env.scb [scoreboard] [670000]: REF: WRITE_RESPONSE=0 READ_DATA=0 READ_RESPONSE=0
UVM_INFO scoreboard.sv(244) @ 670000: uvm_test_top.env.scb [scoreboard] [670000]: DUT: WRITE_RESPONSE=0 READ_DATA=0 READ_RESPONSE=0

-------------------PASS:[18]---------------------------
UVM_INFO scoreboard.sv(237) @ 690000: uvm_test_top.env.scb [scoreboard] [690000] INPUT
UVM_INFO scoreboard.sv(238) @ 690000: uvm_test_top.env.scb [scoreboard] AWVALID=0 AWREADY=0 AWADDR=44
UVM_INFO scoreboard.sv(239) @ 690000: uvm_test_top.env.scb [scoreboard] WVALID =0 WREADY =0 WDATA=2889147800 WSTRB=15
UVM_INFO scoreboard.sv(240) @ 690000: uvm_test_top.env.scb [scoreboard] BVALID =0 BREADY =1
UVM_INFO scoreboard.sv(241) @ 690000: uvm_test_top.env.scb [scoreboard] ARVALID=1 ARREADY=1 ARADDR=48
UVM_INFO scoreboard.sv(242) @ 690000: uvm_test_top.env.scb [scoreboard] RVALID =0 RREADY =1
UVM_INFO scoreboard.sv(243) @ 690000: uvm_test_top.env.scb [scoreboard] [690000]: REF: WRITE_RESPONSE=0 READ_DATA=0 READ_RESPONSE=0
UVM_INFO scoreboard.sv(244) @ 690000: uvm_test_top.env.scb [scoreboard] [690000]: DUT: WRITE_RESPONSE=0 READ_DATA=0 READ_RESPONSE=0

-------------------PASS:[19]---------------------------
UVM_INFO scoreboard.sv(237) @ 710000: uvm_test_top.env.scb [scoreboard] [710000] INPUT
UVM_INFO scoreboard.sv(238) @ 710000: uvm_test_top.env.scb [scoreboard] AWVALID=0 AWREADY=1 AWADDR=36
UVM_INFO scoreboard.sv(239) @ 710000: uvm_test_top.env.scb [scoreboard] WVALID =1 WREADY =1 WDATA=1150107578 WSTRB=15
UVM_INFO scoreboard.sv(240) @ 710000: uvm_test_top.env.scb [scoreboard] BVALID =0 BREADY =1
UVM_INFO scoreboard.sv(241) @ 710000: uvm_test_top.env.scb [scoreboard] ARVALID=1 ARREADY=0 ARADDR=48
UVM_INFO scoreboard.sv(242) @ 710000: uvm_test_top.env.scb [scoreboard] RVALID =1 RREADY =0
UVM_INFO scoreboard.sv(243) @ 710000: uvm_test_top.env.scb [scoreboard] [710000]: REF: WRITE_RESPONSE=0 READ_DATA=0 READ_RESPONSE=0
UVM_INFO scoreboard.sv(244) @ 710000: uvm_test_top.env.scb [scoreboard] [710000]: DUT: WRITE_RESPONSE=0 READ_DATA=0 READ_RESPONSE=0

-------------------PASS:[20]---------------------------
UVM_INFO scoreboard.sv(237) @ 730000: uvm_test_top.env.scb [scoreboard] [730000] INPUT
UVM_INFO scoreboard.sv(238) @ 730000: uvm_test_top.env.scb [scoreboard] AWVALID=0 AWREADY=1 AWADDR=8
UVM_INFO scoreboard.sv(239) @ 730000: uvm_test_top.env.scb [scoreboard] WVALID =1 WREADY =0 WDATA=1150107578 WSTRB=15
UVM_INFO scoreboard.sv(240) @ 730000: uvm_test_top.env.scb [scoreboard] BVALID =0 BREADY =1
UVM_INFO scoreboard.sv(241) @ 730000: uvm_test_top.env.scb [scoreboard] ARVALID=1 ARREADY=0 ARADDR=8
UVM_INFO scoreboard.sv(242) @ 730000: uvm_test_top.env.scb [scoreboard] RVALID =0 RREADY =1
UVM_INFO scoreboard.sv(243) @ 730000: uvm_test_top.env.scb [scoreboard] [730000]: REF: WRITE_RESPONSE=0 READ_DATA=0 READ_RESPONSE=0
UVM_INFO scoreboard.sv(244) @ 730000: uvm_test_top.env.scb [scoreboard] [730000]: DUT: WRITE_RESPONSE=0 READ_DATA=0 READ_RESPONSE=0

-------------------PASS:[21]---------------------------
UVM_INFO scoreboard.sv(237) @ 750000: uvm_test_top.env.scb [scoreboard] [750000] INPUT
UVM_INFO scoreboard.sv(238) @ 750000: uvm_test_top.env.scb [scoreboard] AWVALID=0 AWREADY=1 AWADDR=24
UVM_INFO scoreboard.sv(239) @ 750000: uvm_test_top.env.scb [scoreboard] WVALID =0 WREADY =0 WDATA=2022335074 WSTRB=15
UVM_INFO scoreboard.sv(240) @ 750000: uvm_test_top.env.scb [scoreboard] BVALID =0 BREADY =1
UVM_INFO scoreboard.sv(241) @ 750000: uvm_test_top.env.scb [scoreboard] ARVALID=1 ARREADY=1 ARADDR=8
UVM_INFO scoreboard.sv(242) @ 750000: uvm_test_top.env.scb [scoreboard] RVALID =0 RREADY =1
UVM_INFO scoreboard.sv(243) @ 750000: uvm_test_top.env.scb [scoreboard] [750000]: REF: WRITE_RESPONSE=0 READ_DATA=0 READ_RESPONSE=0
UVM_INFO scoreboard.sv(244) @ 750000: uvm_test_top.env.scb [scoreboard] [750000]: DUT: WRITE_RESPONSE=0 READ_DATA=0 READ_RESPONSE=0

-------------------PASS:[22]---------------------------
UVM_INFO scoreboard.sv(237) @ 770000: uvm_test_top.env.scb [scoreboard] [770000] INPUT
UVM_INFO scoreboard.sv(238) @ 770000: uvm_test_top.env.scb [scoreboard] AWVALID=1 AWREADY=0 AWADDR=40
UVM_INFO scoreboard.sv(239) @ 770000: uvm_test_top.env.scb [scoreboard] WVALID =0 WREADY =0 WDATA=4197126841 WSTRB=15
UVM_INFO scoreboard.sv(240) @ 770000: uvm_test_top.env.scb [scoreboard] BVALID =0 BREADY =0
UVM_INFO scoreboard.sv(241) @ 770000: uvm_test_top.env.scb [scoreboard] ARVALID=1 ARREADY=0 ARADDR=8
UVM_INFO scoreboard.sv(242) @ 770000: uvm_test_top.env.scb [scoreboard] RVALID =1 RREADY =0
UVM_INFO scoreboard.sv(243) @ 770000: uvm_test_top.env.scb [scoreboard] [770000]: REF: WRITE_RESPONSE=0 READ_DATA=0 READ_RESPONSE=0
UVM_INFO scoreboard.sv(244) @ 770000: uvm_test_top.env.scb [scoreboard] [770000]: DUT: WRITE_RESPONSE=0 READ_DATA=0 READ_RESPONSE=0

-------------------PASS:[23]---------------------------
UVM_INFO scoreboard.sv(237) @ 790000: uvm_test_top.env.scb [scoreboard] [790000] INPUT
UVM_INFO scoreboard.sv(238) @ 790000: uvm_test_top.env.scb [scoreboard] AWVALID=1 AWREADY=0 AWADDR=12
UVM_INFO scoreboard.sv(239) @ 790000: uvm_test_top.env.scb [scoreboard] WVALID =0 WREADY =0 WDATA=1240761145 WSTRB=15
UVM_INFO scoreboard.sv(240) @ 790000: uvm_test_top.env.scb [scoreboard] BVALID =1 BREADY =1
UVM_INFO scoreboard.sv(241) @ 790000: uvm_test_top.env.scb [scoreboard] ARVALID=0 ARREADY=0 ARADDR=12
UVM_INFO scoreboard.sv(242) @ 790000: uvm_test_top.env.scb [scoreboard] RVALID =0 RREADY =1
UVM_INFO scoreboard.sv(243) @ 790000: uvm_test_top.env.scb [scoreboard] [790000]: REF: WRITE_RESPONSE=0 READ_DATA=0 READ_RESPONSE=0
UVM_INFO scoreboard.sv(244) @ 790000: uvm_test_top.env.scb [scoreboard] [790000]: DUT: WRITE_RESPONSE=0 READ_DATA=0 READ_RESPONSE=0

-------------------PASS:[24]---------------------------
UVM_INFO scoreboard.sv(237) @ 810000: uvm_test_top.env.scb [scoreboard] [810000] INPUT
UVM_INFO scoreboard.sv(238) @ 810000: uvm_test_top.env.scb [scoreboard] AWVALID=1 AWREADY=0 AWADDR=12
UVM_INFO scoreboard.sv(239) @ 810000: uvm_test_top.env.scb [scoreboard] WVALID =0 WREADY =0 WDATA=2276676049 WSTRB=15
UVM_INFO scoreboard.sv(240) @ 810000: uvm_test_top.env.scb [scoreboard] BVALID =0 BREADY =1
UVM_INFO scoreboard.sv(241) @ 810000: uvm_test_top.env.scb [scoreboard] ARVALID=1 ARREADY=1 ARADDR=60
UVM_INFO scoreboard.sv(242) @ 810000: uvm_test_top.env.scb [scoreboard] RVALID =0 RREADY =1
UVM_INFO scoreboard.sv(243) @ 810000: uvm_test_top.env.scb [scoreboard] [810000]: REF: WRITE_RESPONSE=0 READ_DATA=0 READ_RESPONSE=0
UVM_INFO scoreboard.sv(244) @ 810000: uvm_test_top.env.scb [scoreboard] [810000]: DUT: WRITE_RESPONSE=0 READ_DATA=0 READ_RESPONSE=0

-------------------FAIL:[15]---------------------------
UVM_INFO scoreboard.sv(252) @ 830000: uvm_test_top.env.scb [scoreboard] [830000] INPUT
UVM_INFO scoreboard.sv(253) @ 830000: uvm_test_top.env.scb [scoreboard] AWVALID=1 AWREADY=1 AWADDR=12
UVM_INFO scoreboard.sv(254) @ 830000: uvm_test_top.env.scb [scoreboard] WVALID =0 WREADY =1 WDATA=2098127254 WSTRB=15
UVM_INFO scoreboard.sv(255) @ 830000: uvm_test_top.env.scb [scoreboard] BVALID =0 BREADY =0
UVM_INFO scoreboard.sv(256) @ 830000: uvm_test_top.env.scb [scoreboard] ARVALID=1 ARREADY=0 ARADDR=60
UVM_INFO scoreboard.sv(257) @ 830000: uvm_test_top.env.scb [scoreboard] RVALID =1 RREADY =0
UVM_INFO scoreboard.sv(258) @ 830000: uvm_test_top.env.scb [scoreboard] [830000]: REF: WRITE_RESPONSE=0 READ_DATA=0 READ_RESPONSE=0
UVM_INFO scoreboard.sv(259) @ 830000: uvm_test_top.env.scb [scoreboard] [830000]: DUT: WRITE_RESPONSE=0 READ_DATA=1852289854 READ_RESPONSE=0

-------------------FAIL:[16]---------------------------
UVM_INFO scoreboard.sv(252) @ 850000: uvm_test_top.env.scb [scoreboard] [850000] INPUT
UVM_INFO scoreboard.sv(253) @ 850000: uvm_test_top.env.scb [scoreboard] AWVALID=1 AWREADY=0 AWADDR=12
UVM_INFO scoreboard.sv(254) @ 850000: uvm_test_top.env.scb [scoreboard] WVALID =0 WREADY =1 WDATA=3360743407 WSTRB=15
UVM_INFO scoreboard.sv(255) @ 850000: uvm_test_top.env.scb [scoreboard] BVALID =0 BREADY =1
UVM_INFO scoreboard.sv(256) @ 850000: uvm_test_top.env.scb [scoreboard] ARVALID=0 ARREADY=0 ARADDR=16
UVM_INFO scoreboard.sv(257) @ 850000: uvm_test_top.env.scb [scoreboard] RVALID =1 RREADY =0
UVM_INFO scoreboard.sv(258) @ 850000: uvm_test_top.env.scb [scoreboard] [850000]: REF: WRITE_RESPONSE=0 READ_DATA=0 READ_RESPONSE=0
UVM_INFO scoreboard.sv(259) @ 850000: uvm_test_top.env.scb [scoreboard] [850000]: DUT: WRITE_RESPONSE=0 READ_DATA=1852289854 READ_RESPONSE=0

-------------------FAIL:[17]---------------------------
UVM_INFO scoreboard.sv(252) @ 870000: uvm_test_top.env.scb [scoreboard] [870000] INPUT
UVM_INFO scoreboard.sv(253) @ 870000: uvm_test_top.env.scb [scoreboard] AWVALID=1 AWREADY=0 AWADDR=56
UVM_INFO scoreboard.sv(254) @ 870000: uvm_test_top.env.scb [scoreboard] WVALID =0 WREADY =1 WDATA=2031802539 WSTRB=15
UVM_INFO scoreboard.sv(255) @ 870000: uvm_test_top.env.scb [scoreboard] BVALID =0 BREADY =0
UVM_INFO scoreboard.sv(256) @ 870000: uvm_test_top.env.scb [scoreboard] ARVALID=1 ARREADY=0 ARADDR=8
UVM_INFO scoreboard.sv(257) @ 870000: uvm_test_top.env.scb [scoreboard] RVALID =0 RREADY =1
UVM_INFO scoreboard.sv(258) @ 870000: uvm_test_top.env.scb [scoreboard] [870000]: REF: WRITE_RESPONSE=0 READ_DATA=0 READ_RESPONSE=0
UVM_INFO scoreboard.sv(259) @ 870000: uvm_test_top.env.scb [scoreboard] [870000]: DUT: WRITE_RESPONSE=0 READ_DATA=1852289854 READ_RESPONSE=0

-------------------FAIL:[18]---------------------------
UVM_INFO scoreboard.sv(252) @ 890000: uvm_test_top.env.scb [scoreboard] [890000] INPUT
UVM_INFO scoreboard.sv(253) @ 890000: uvm_test_top.env.scb [scoreboard] AWVALID=1 AWREADY=0 AWADDR=56
UVM_INFO scoreboard.sv(254) @ 890000: uvm_test_top.env.scb [scoreboard] WVALID =1 WREADY =0 WDATA=3819302793 WSTRB=15
UVM_INFO scoreboard.sv(255) @ 890000: uvm_test_top.env.scb [scoreboard] BVALID =0 BREADY =0
UVM_INFO scoreboard.sv(256) @ 890000: uvm_test_top.env.scb [scoreboard] ARVALID=1 ARREADY=1 ARADDR=8
UVM_INFO scoreboard.sv(257) @ 890000: uvm_test_top.env.scb [scoreboard] RVALID =0 RREADY =1
UVM_INFO scoreboard.sv(258) @ 890000: uvm_test_top.env.scb [scoreboard] [890000]: REF: WRITE_RESPONSE=0 READ_DATA=0 READ_RESPONSE=0
UVM_INFO scoreboard.sv(259) @ 890000: uvm_test_top.env.scb [scoreboard] [890000]: DUT: WRITE_RESPONSE=0 READ_DATA=1852289854 READ_RESPONSE=0

-------------------PASS:[25]---------------------------
UVM_INFO scoreboard.sv(237) @ 910000: uvm_test_top.env.scb [scoreboard] [910000] INPUT
UVM_INFO scoreboard.sv(238) @ 910000: uvm_test_top.env.scb [scoreboard] AWVALID=1 AWREADY=0 AWADDR=56
UVM_INFO scoreboard.sv(239) @ 910000: uvm_test_top.env.scb [scoreboard] WVALID =1 WREADY =0 WDATA=3440887911 WSTRB=15
UVM_INFO scoreboard.sv(240) @ 910000: uvm_test_top.env.scb [scoreboard] BVALID =1 BREADY =0
UVM_INFO scoreboard.sv(241) @ 910000: uvm_test_top.env.scb [scoreboard] ARVALID=1 ARREADY=0 ARADDR=8
UVM_INFO scoreboard.sv(242) @ 910000: uvm_test_top.env.scb [scoreboard] RVALID =1 RREADY =0
UVM_INFO scoreboard.sv(243) @ 910000: uvm_test_top.env.scb [scoreboard] [910000]: REF: WRITE_RESPONSE=0 READ_DATA=0 READ_RESPONSE=0
UVM_INFO scoreboard.sv(244) @ 910000: uvm_test_top.env.scb [scoreboard] [910000]: DUT: WRITE_RESPONSE=0 READ_DATA=0 READ_RESPONSE=0

-------------------PASS:[26]---------------------------
UVM_INFO scoreboard.sv(237) @ 930000: uvm_test_top.env.scb [scoreboard] [930000] INPUT
UVM_INFO scoreboard.sv(238) @ 930000: uvm_test_top.env.scb [scoreboard] AWVALID=1 AWREADY=0 AWADDR=56
UVM_INFO scoreboard.sv(239) @ 930000: uvm_test_top.env.scb [scoreboard] WVALID =1 WREADY =0 WDATA=3440887911 WSTRB=15
UVM_INFO scoreboard.sv(240) @ 930000: uvm_test_top.env.scb [scoreboard] BVALID =0 BREADY =1
UVM_INFO scoreboard.sv(241) @ 930000: uvm_test_top.env.scb [scoreboard] ARVALID=0 ARREADY=0 ARADDR=4
UVM_INFO scoreboard.sv(242) @ 930000: uvm_test_top.env.scb [scoreboard] RVALID =1 RREADY =0
UVM_INFO scoreboard.sv(243) @ 930000: uvm_test_top.env.scb [scoreboard] [930000]: REF: WRITE_RESPONSE=0 READ_DATA=0 READ_RESPONSE=0
UVM_INFO scoreboard.sv(244) @ 930000: uvm_test_top.env.scb [scoreboard] [930000]: DUT: WRITE_RESPONSE=0 READ_DATA=0 READ_RESPONSE=0

-------------------PASS:[27]---------------------------
UVM_INFO scoreboard.sv(237) @ 950000: uvm_test_top.env.scb [scoreboard] [950000] INPUT
UVM_INFO scoreboard.sv(238) @ 950000: uvm_test_top.env.scb [scoreboard] AWVALID=1 AWREADY=1 AWADDR=56
UVM_INFO scoreboard.sv(239) @ 950000: uvm_test_top.env.scb [scoreboard] WVALID =1 WREADY =1 WDATA=3440887911 WSTRB=15
UVM_INFO scoreboard.sv(240) @ 950000: uvm_test_top.env.scb [scoreboard] BVALID =0 BREADY =0
UVM_INFO scoreboard.sv(241) @ 950000: uvm_test_top.env.scb [scoreboard] ARVALID=0 ARREADY=0 ARADDR=0
UVM_INFO scoreboard.sv(242) @ 950000: uvm_test_top.env.scb [scoreboard] RVALID =1 RREADY =0
UVM_INFO scoreboard.sv(243) @ 950000: uvm_test_top.env.scb [scoreboard] [950000]: REF: WRITE_RESPONSE=0 READ_DATA=0 READ_RESPONSE=0
UVM_INFO scoreboard.sv(244) @ 950000: uvm_test_top.env.scb [scoreboard] [950000]: DUT: WRITE_RESPONSE=0 READ_DATA=0 READ_RESPONSE=0

-------------------PASS:[28]---------------------------
UVM_INFO scoreboard.sv(237) @ 970000: uvm_test_top.env.scb [scoreboard] [970000] INPUT
UVM_INFO scoreboard.sv(238) @ 970000: uvm_test_top.env.scb [scoreboard] AWVALID=1 AWREADY=0 AWADDR=56
UVM_INFO scoreboard.sv(239) @ 970000: uvm_test_top.env.scb [scoreboard] WVALID =1 WREADY =0 WDATA=3440887911 WSTRB=15
UVM_INFO scoreboard.sv(240) @ 970000: uvm_test_top.env.scb [scoreboard] BVALID =0 BREADY =0
UVM_INFO scoreboard.sv(241) @ 970000: uvm_test_top.env.scb [scoreboard] ARVALID=1 ARREADY=0 ARADDR=8
UVM_INFO scoreboard.sv(242) @ 970000: uvm_test_top.env.scb [scoreboard] RVALID =0 RREADY =1
UVM_INFO scoreboard.sv(243) @ 970000: uvm_test_top.env.scb [scoreboard] [970000]: REF: WRITE_RESPONSE=0 READ_DATA=0 READ_RESPONSE=0
UVM_INFO scoreboard.sv(244) @ 970000: uvm_test_top.env.scb [scoreboard] [970000]: DUT: WRITE_RESPONSE=0 READ_DATA=0 READ_RESPONSE=0

-------------------PASS:[29]---------------------------
UVM_INFO scoreboard.sv(237) @ 990000: uvm_test_top.env.scb [scoreboard] [990000] INPUT
UVM_INFO scoreboard.sv(238) @ 990000: uvm_test_top.env.scb [scoreboard] AWVALID=0 AWREADY=0 AWADDR=16
UVM_INFO scoreboard.sv(239) @ 990000: uvm_test_top.env.scb [scoreboard] WVALID =0 WREADY =0 WDATA=2706949359 WSTRB=15
UVM_INFO scoreboard.sv(240) @ 990000: uvm_test_top.env.scb [scoreboard] BVALID =1 BREADY =0
UVM_INFO scoreboard.sv(241) @ 990000: uvm_test_top.env.scb [scoreboard] ARVALID=1 ARREADY=1 ARADDR=8
UVM_INFO scoreboard.sv(242) @ 990000: uvm_test_top.env.scb [scoreboard] RVALID =0 RREADY =1
UVM_INFO scoreboard.sv(243) @ 990000: uvm_test_top.env.scb [scoreboard] [990000]: REF: WRITE_RESPONSE=0 READ_DATA=0 READ_RESPONSE=0
UVM_INFO scoreboard.sv(244) @ 990000: uvm_test_top.env.scb [scoreboard] [990000]: DUT: WRITE_RESPONSE=0 READ_DATA=0 READ_RESPONSE=0

-------------------PASS:[30]---------------------------
UVM_INFO scoreboard.sv(237) @ 1010000: uvm_test_top.env.scb [scoreboard] [1010000] INPUT
UVM_INFO scoreboard.sv(238) @ 1010000: uvm_test_top.env.scb [scoreboard] AWVALID=0 AWREADY=0 AWADDR=56
UVM_INFO scoreboard.sv(239) @ 1010000: uvm_test_top.env.scb [scoreboard] WVALID =0 WREADY =0 WDATA=2021168524 WSTRB=15
UVM_INFO scoreboard.sv(240) @ 1010000: uvm_test_top.env.scb [scoreboard] BVALID =0 BREADY =1
UVM_INFO scoreboard.sv(241) @ 1010000: uvm_test_top.env.scb [scoreboard] ARVALID=1 ARREADY=0 ARADDR=8
UVM_INFO scoreboard.sv(242) @ 1010000: uvm_test_top.env.scb [scoreboard] RVALID =1 RREADY =0
UVM_INFO scoreboard.sv(243) @ 1010000: uvm_test_top.env.scb [scoreboard] [1010000]: REF: WRITE_RESPONSE=0 READ_DATA=0 READ_RESPONSE=0
UVM_INFO scoreboard.sv(244) @ 1010000: uvm_test_top.env.scb [scoreboard] [1010000]: DUT: WRITE_RESPONSE=0 READ_DATA=0 READ_RESPONSE=0

-------------------PASS:[31]---------------------------
UVM_INFO scoreboard.sv(237) @ 1030000: uvm_test_top.env.scb [scoreboard] [1030000] INPUT
UVM_INFO scoreboard.sv(238) @ 1030000: uvm_test_top.env.scb [scoreboard] AWVALID=1 AWREADY=1 AWADDR=60
UVM_INFO scoreboard.sv(239) @ 1030000: uvm_test_top.env.scb [scoreboard] WVALID =1 WREADY =1 WDATA=1979495171 WSTRB=15
UVM_INFO scoreboard.sv(240) @ 1030000: uvm_test_top.env.scb [scoreboard] BVALID =0 BREADY =1
UVM_INFO scoreboard.sv(241) @ 1030000: uvm_test_top.env.scb [scoreboard] ARVALID=1 ARREADY=0 ARADDR=52
UVM_INFO scoreboard.sv(242) @ 1030000: uvm_test_top.env.scb [scoreboard] RVALID =1 RREADY =0
UVM_INFO scoreboard.sv(243) @ 1030000: uvm_test_top.env.scb [scoreboard] [1030000]: REF: WRITE_RESPONSE=0 READ_DATA=0 READ_RESPONSE=0
UVM_INFO scoreboard.sv(244) @ 1030000: uvm_test_top.env.scb [scoreboard] [1030000]: DUT: WRITE_RESPONSE=0 READ_DATA=0 READ_RESPONSE=0

-------------------PASS:[32]---------------------------
UVM_INFO scoreboard.sv(237) @ 1050000: uvm_test_top.env.scb [scoreboard] [1050000] INPUT
UVM_INFO scoreboard.sv(238) @ 1050000: uvm_test_top.env.scb [scoreboard] AWVALID=1 AWREADY=0 AWADDR=60
UVM_INFO scoreboard.sv(239) @ 1050000: uvm_test_top.env.scb [scoreboard] WVALID =1 WREADY =0 WDATA=1979495171 WSTRB=15
UVM_INFO scoreboard.sv(240) @ 1050000: uvm_test_top.env.scb [scoreboard] BVALID =0 BREADY =0
UVM_INFO scoreboard.sv(241) @ 1050000: uvm_test_top.env.scb [scoreboard] ARVALID=1 ARREADY=0 ARADDR=52
UVM_INFO scoreboard.sv(242) @ 1050000: uvm_test_top.env.scb [scoreboard] RVALID =0 RREADY =1
UVM_INFO scoreboard.sv(243) @ 1050000: uvm_test_top.env.scb [scoreboard] [1050000]: REF: WRITE_RESPONSE=0 READ_DATA=0 READ_RESPONSE=0
UVM_INFO scoreboard.sv(244) @ 1050000: uvm_test_top.env.scb [scoreboard] [1050000]: DUT: WRITE_RESPONSE=0 READ_DATA=0 READ_RESPONSE=0

-------------------FAIL:[19]---------------------------
UVM_INFO scoreboard.sv(252) @ 1070000: uvm_test_top.env.scb [scoreboard] [1070000] INPUT
UVM_INFO scoreboard.sv(253) @ 1070000: uvm_test_top.env.scb [scoreboard] AWVALID=0 AWREADY=0 AWADDR=48
UVM_INFO scoreboard.sv(254) @ 1070000: uvm_test_top.env.scb [scoreboard] WVALID =0 WREADY =0 WDATA=4165279171 WSTRB=15
UVM_INFO scoreboard.sv(255) @ 1070000: uvm_test_top.env.scb [scoreboard] BVALID =1 BREADY =0
UVM_INFO scoreboard.sv(256) @ 1070000: uvm_test_top.env.scb [scoreboard] ARVALID=1 ARREADY=1 ARADDR=52
UVM_INFO scoreboard.sv(257) @ 1070000: uvm_test_top.env.scb [scoreboard] RVALID =0 RREADY =1
UVM_INFO scoreboard.sv(258) @ 1070000: uvm_test_top.env.scb [scoreboard] [1070000]: REF: WRITE_RESPONSE=0 READ_DATA=0 READ_RESPONSE=0
UVM_INFO scoreboard.sv(259) @ 1070000: uvm_test_top.env.scb [scoreboard] [1070000]: DUT: WRITE_RESPONSE=2 READ_DATA=0 READ_RESPONSE=0

-------------------FAIL:[20]---------------------------
UVM_INFO scoreboard.sv(252) @ 1090000: uvm_test_top.env.scb [scoreboard] [1090000] INPUT
UVM_INFO scoreboard.sv(253) @ 1090000: uvm_test_top.env.scb [scoreboard] AWVALID=0 AWREADY=0 AWADDR=52
UVM_INFO scoreboard.sv(254) @ 1090000: uvm_test_top.env.scb [scoreboard] WVALID =0 WREADY =0 WDATA=4087699178 WSTRB=15
UVM_INFO scoreboard.sv(255) @ 1090000: uvm_test_top.env.scb [scoreboard] BVALID =0 BREADY =1
UVM_INFO scoreboard.sv(256) @ 1090000: uvm_test_top.env.scb [scoreboard] ARVALID=1 ARREADY=0 ARADDR=52
UVM_INFO scoreboard.sv(257) @ 1090000: uvm_test_top.env.scb [scoreboard] RVALID =1 RREADY =1
UVM_INFO scoreboard.sv(258) @ 1090000: uvm_test_top.env.scb [scoreboard] [1090000]: REF: WRITE_RESPONSE=0 READ_DATA=0 READ_RESPONSE=0
UVM_INFO scoreboard.sv(259) @ 1090000: uvm_test_top.env.scb [scoreboard] [1090000]: DUT: WRITE_RESPONSE=2 READ_DATA=0 READ_RESPONSE=2

-------------------FAIL:[21]---------------------------
UVM_INFO scoreboard.sv(252) @ 1110000: uvm_test_top.env.scb [scoreboard] [1110000] INPUT
UVM_INFO scoreboard.sv(253) @ 1110000: uvm_test_top.env.scb [scoreboard] AWVALID=0 AWREADY=1 AWADDR=24
UVM_INFO scoreboard.sv(254) @ 1110000: uvm_test_top.env.scb [scoreboard] WVALID =0 WREADY =1 WDATA=2652164009 WSTRB=15
UVM_INFO scoreboard.sv(255) @ 1110000: uvm_test_top.env.scb [scoreboard] BVALID =0 BREADY =0
UVM_INFO scoreboard.sv(256) @ 1110000: uvm_test_top.env.scb [scoreboard] ARVALID=1 ARREADY=0 ARADDR=0
UVM_INFO scoreboard.sv(257) @ 1110000: uvm_test_top.env.scb [scoreboard] RVALID =0 RREADY =1
UVM_INFO scoreboard.sv(258) @ 1110000: uvm_test_top.env.scb [scoreboard] [1110000]: REF: WRITE_RESPONSE=0 READ_DATA=0 READ_RESPONSE=0
UVM_INFO scoreboard.sv(259) @ 1110000: uvm_test_top.env.scb [scoreboard] [1110000]: DUT: WRITE_RESPONSE=2 READ_DATA=0 READ_RESPONSE=2

-------------------FAIL:[22]---------------------------
UVM_INFO scoreboard.sv(252) @ 1130000: uvm_test_top.env.scb [scoreboard] [1130000] INPUT
UVM_INFO scoreboard.sv(253) @ 1130000: uvm_test_top.env.scb [scoreboard] AWVALID=0 AWREADY=1 AWADDR=28
UVM_INFO scoreboard.sv(254) @ 1130000: uvm_test_top.env.scb [scoreboard] WVALID =0 WREADY =1 WDATA=1724324912 WSTRB=15
UVM_INFO scoreboard.sv(255) @ 1130000: uvm_test_top.env.scb [scoreboard] BVALID =0 BREADY =0
UVM_INFO scoreboard.sv(256) @ 1130000: uvm_test_top.env.scb [scoreboard] ARVALID=1 ARREADY=1 ARADDR=0
UVM_INFO scoreboard.sv(257) @ 1130000: uvm_test_top.env.scb [scoreboard] RVALID =0 RREADY =0
UVM_INFO scoreboard.sv(258) @ 1130000: uvm_test_top.env.scb [scoreboard] [1130000]: REF: WRITE_RESPONSE=0 READ_DATA=0 READ_RESPONSE=0
UVM_INFO scoreboard.sv(259) @ 1130000: uvm_test_top.env.scb [scoreboard] [1130000]: DUT: WRITE_RESPONSE=2 READ_DATA=0 READ_RESPONSE=2

-------------------FAIL:[23]---------------------------
UVM_INFO scoreboard.sv(252) @ 1150000: uvm_test_top.env.scb [scoreboard] [1150000] INPUT
UVM_INFO scoreboard.sv(253) @ 1150000: uvm_test_top.env.scb [scoreboard] AWVALID=0 AWREADY=1 AWADDR=48
UVM_INFO scoreboard.sv(254) @ 1150000: uvm_test_top.env.scb [scoreboard] WVALID =0 WREADY =1 WDATA=2691984677 WSTRB=15
UVM_INFO scoreboard.sv(255) @ 1150000: uvm_test_top.env.scb [scoreboard] BVALID =0 BREADY =0
UVM_INFO scoreboard.sv(256) @ 1150000: uvm_test_top.env.scb [scoreboard] ARVALID=1 ARREADY=0 ARADDR=0
UVM_INFO scoreboard.sv(257) @ 1150000: uvm_test_top.env.scb [scoreboard] RVALID =1 RREADY =1
UVM_INFO scoreboard.sv(258) @ 1150000: uvm_test_top.env.scb [scoreboard] [1150000]: REF: WRITE_RESPONSE=0 READ_DATA=0 READ_RESPONSE=0
UVM_INFO scoreboard.sv(259) @ 1150000: uvm_test_top.env.scb [scoreboard] [1150000]: DUT: WRITE_RESPONSE=2 READ_DATA=0 READ_RESPONSE=0

-------------------FAIL:[24]---------------------------
UVM_INFO scoreboard.sv(252) @ 1170000: uvm_test_top.env.scb [scoreboard] [1170000] INPUT
UVM_INFO scoreboard.sv(253) @ 1170000: uvm_test_top.env.scb [scoreboard] AWVALID=0 AWREADY=1 AWADDR=28
UVM_INFO scoreboard.sv(254) @ 1170000: uvm_test_top.env.scb [scoreboard] WVALID =0 WREADY =1 WDATA=3789253720 WSTRB=15
UVM_INFO scoreboard.sv(255) @ 1170000: uvm_test_top.env.scb [scoreboard] BVALID =0 BREADY =1
UVM_INFO scoreboard.sv(256) @ 1170000: uvm_test_top.env.scb [scoreboard] ARVALID=1 ARREADY=0 ARADDR=48
UVM_INFO scoreboard.sv(257) @ 1170000: uvm_test_top.env.scb [scoreboard] RVALID =0 RREADY =1
UVM_INFO scoreboard.sv(258) @ 1170000: uvm_test_top.env.scb [scoreboard] [1170000]: REF: WRITE_RESPONSE=0 READ_DATA=0 READ_RESPONSE=0
UVM_INFO scoreboard.sv(259) @ 1170000: uvm_test_top.env.scb [scoreboard] [1170000]: DUT: WRITE_RESPONSE=2 READ_DATA=0 READ_RESPONSE=0

-------------------FAIL:[25]---------------------------
UVM_INFO scoreboard.sv(252) @ 1190000: uvm_test_top.env.scb [scoreboard] [1190000] INPUT
UVM_INFO scoreboard.sv(253) @ 1190000: uvm_test_top.env.scb [scoreboard] AWVALID=1 AWREADY=1 AWADDR=28
UVM_INFO scoreboard.sv(254) @ 1190000: uvm_test_top.env.scb [scoreboard] WVALID =1 WREADY =1 WDATA=367100031 WSTRB=15
UVM_INFO scoreboard.sv(255) @ 1190000: uvm_test_top.env.scb [scoreboard] BVALID =0 BREADY =1
UVM_INFO scoreboard.sv(256) @ 1190000: uvm_test_top.env.scb [scoreboard] ARVALID=1 ARREADY=1 ARADDR=48
UVM_INFO scoreboard.sv(257) @ 1190000: uvm_test_top.env.scb [scoreboard] RVALID =0 RREADY =1
UVM_INFO scoreboard.sv(258) @ 1190000: uvm_test_top.env.scb [scoreboard] [1190000]: REF: WRITE_RESPONSE=0 READ_DATA=0 READ_RESPONSE=0
UVM_INFO scoreboard.sv(259) @ 1190000: uvm_test_top.env.scb [scoreboard] [1190000]: DUT: WRITE_RESPONSE=2 READ_DATA=0 READ_RESPONSE=0

-------------------FAIL:[26]---------------------------
UVM_INFO scoreboard.sv(252) @ 1210000: uvm_test_top.env.scb [scoreboard] [1210000] INPUT
UVM_INFO scoreboard.sv(253) @ 1210000: uvm_test_top.env.scb [scoreboard] AWVALID=1 AWREADY=0 AWADDR=32
UVM_INFO scoreboard.sv(254) @ 1210000: uvm_test_top.env.scb [scoreboard] WVALID =0 WREADY =1 WDATA=3309460780 WSTRB=15
UVM_INFO scoreboard.sv(255) @ 1210000: uvm_test_top.env.scb [scoreboard] BVALID =0 BREADY =0
UVM_INFO scoreboard.sv(256) @ 1210000: uvm_test_top.env.scb [scoreboard] ARVALID=1 ARREADY=0 ARADDR=48
UVM_INFO scoreboard.sv(257) @ 1210000: uvm_test_top.env.scb [scoreboard] RVALID =1 RREADY =1
UVM_INFO scoreboard.sv(258) @ 1210000: uvm_test_top.env.scb [scoreboard] [1210000]: REF: WRITE_RESPONSE=0 READ_DATA=0 READ_RESPONSE=2
UVM_INFO scoreboard.sv(259) @ 1210000: uvm_test_top.env.scb [scoreboard] [1210000]: DUT: WRITE_RESPONSE=2 READ_DATA=0 READ_RESPONSE=0

-------------------FAIL:[27]---------------------------
UVM_INFO scoreboard.sv(252) @ 1230000: uvm_test_top.env.scb [scoreboard] [1230000] INPUT
UVM_INFO scoreboard.sv(253) @ 1230000: uvm_test_top.env.scb [scoreboard] AWVALID=1 AWREADY=0 AWADDR=32
UVM_INFO scoreboard.sv(254) @ 1230000: uvm_test_top.env.scb [scoreboard] WVALID =0 WREADY =1 WDATA=978711928 WSTRB=15
UVM_INFO scoreboard.sv(255) @ 1230000: uvm_test_top.env.scb [scoreboard] BVALID =0 BREADY =1
UVM_INFO scoreboard.sv(256) @ 1230000: uvm_test_top.env.scb [scoreboard] ARVALID=0 ARREADY=0 ARADDR=32
UVM_INFO scoreboard.sv(257) @ 1230000: uvm_test_top.env.scb [scoreboard] RVALID =0 RREADY =1
UVM_INFO scoreboard.sv(258) @ 1230000: uvm_test_top.env.scb [scoreboard] [1230000]: REF: WRITE_RESPONSE=0 READ_DATA=0 READ_RESPONSE=2
UVM_INFO scoreboard.sv(259) @ 1230000: uvm_test_top.env.scb [scoreboard] [1230000]: DUT: WRITE_RESPONSE=2 READ_DATA=0 READ_RESPONSE=0

-------------------FAIL:[28]---------------------------
UVM_INFO scoreboard.sv(252) @ 1250000: uvm_test_top.env.scb [scoreboard] [1250000] INPUT
UVM_INFO scoreboard.sv(253) @ 1250000: uvm_test_top.env.scb [scoreboard] AWVALID=1 AWREADY=0 AWADDR=32
UVM_INFO scoreboard.sv(254) @ 1250000: uvm_test_top.env.scb [scoreboard] WVALID =0 WREADY =1 WDATA=4251175261 WSTRB=15
UVM_INFO scoreboard.sv(255) @ 1250000: uvm_test_top.env.scb [scoreboard] BVALID =0 BREADY =1
UVM_INFO scoreboard.sv(256) @ 1250000: uvm_test_top.env.scb [scoreboard] ARVALID=1 ARREADY=1 ARADDR=52
UVM_INFO scoreboard.sv(257) @ 1250000: uvm_test_top.env.scb [scoreboard] RVALID =0 RREADY =0
UVM_INFO scoreboard.sv(258) @ 1250000: uvm_test_top.env.scb [scoreboard] [1250000]: REF: WRITE_RESPONSE=0 READ_DATA=0 READ_RESPONSE=2
UVM_INFO scoreboard.sv(259) @ 1250000: uvm_test_top.env.scb [scoreboard] [1250000]: DUT: WRITE_RESPONSE=2 READ_DATA=0 READ_RESPONSE=0

-------------------FAIL:[29]---------------------------
UVM_INFO scoreboard.sv(252) @ 1270000: uvm_test_top.env.scb [scoreboard] [1270000] INPUT
UVM_INFO scoreboard.sv(253) @ 1270000: uvm_test_top.env.scb [scoreboard] AWVALID=1 AWREADY=0 AWADDR=32
UVM_INFO scoreboard.sv(254) @ 1270000: uvm_test_top.env.scb [scoreboard] WVALID =0 WREADY =1 WDATA=2821920094 WSTRB=15
UVM_INFO scoreboard.sv(255) @ 1270000: uvm_test_top.env.scb [scoreboard] BVALID =0 BREADY =0
UVM_INFO scoreboard.sv(256) @ 1270000: uvm_test_top.env.scb [scoreboard] ARVALID=1 ARREADY=0 ARADDR=52
UVM_INFO scoreboard.sv(257) @ 1270000: uvm_test_top.env.scb [scoreboard] RVALID =1 RREADY =1
UVM_INFO scoreboard.sv(258) @ 1270000: uvm_test_top.env.scb [scoreboard] [1270000]: REF: WRITE_RESPONSE=0 READ_DATA=0 READ_RESPONSE=2
UVM_INFO scoreboard.sv(259) @ 1270000: uvm_test_top.env.scb [scoreboard] [1270000]: DUT: WRITE_RESPONSE=2 READ_DATA=0 READ_RESPONSE=2

-------------------FAIL:[30]---------------------------
UVM_INFO scoreboard.sv(252) @ 1290000: uvm_test_top.env.scb [scoreboard] [1290000] INPUT
UVM_INFO scoreboard.sv(253) @ 1290000: uvm_test_top.env.scb [scoreboard] AWVALID=1 AWREADY=0 AWADDR=32
UVM_INFO scoreboard.sv(254) @ 1290000: uvm_test_top.env.scb [scoreboard] WVALID =0 WREADY =1 WDATA=648913038 WSTRB=15
UVM_INFO scoreboard.sv(255) @ 1290000: uvm_test_top.env.scb [scoreboard] BVALID =0 BREADY =0
UVM_INFO scoreboard.sv(256) @ 1290000: uvm_test_top.env.scb [scoreboard] ARVALID=0 ARREADY=0 ARADDR=28
UVM_INFO scoreboard.sv(257) @ 1290000: uvm_test_top.env.scb [scoreboard] RVALID =0 RREADY =1
UVM_INFO scoreboard.sv(258) @ 1290000: uvm_test_top.env.scb [scoreboard] [1290000]: REF: WRITE_RESPONSE=0 READ_DATA=0 READ_RESPONSE=2
UVM_INFO scoreboard.sv(259) @ 1290000: uvm_test_top.env.scb [scoreboard] [1290000]: DUT: WRITE_RESPONSE=2 READ_DATA=0 READ_RESPONSE=2

-------------------FAIL:[31]---------------------------
UVM_INFO scoreboard.sv(252) @ 1310000: uvm_test_top.env.scb [scoreboard] [1310000] INPUT
UVM_INFO scoreboard.sv(253) @ 1310000: uvm_test_top.env.scb [scoreboard] AWVALID=1 AWREADY=0 AWADDR=32
UVM_INFO scoreboard.sv(254) @ 1310000: uvm_test_top.env.scb [scoreboard] WVALID =0 WREADY =1 WDATA=2729013567 WSTRB=15
UVM_INFO scoreboard.sv(255) @ 1310000: uvm_test_top.env.scb [scoreboard] BVALID =0 BREADY =0
UVM_INFO scoreboard.sv(256) @ 1310000: uvm_test_top.env.scb [scoreboard] ARVALID=0 ARREADY=1 ARADDR=40
UVM_INFO scoreboard.sv(257) @ 1310000: uvm_test_top.env.scb [scoreboard] RVALID =0 RREADY =0
UVM_INFO scoreboard.sv(258) @ 1310000: uvm_test_top.env.scb [scoreboard] [1310000]: REF: WRITE_RESPONSE=0 READ_DATA=0 READ_RESPONSE=2
UVM_INFO scoreboard.sv(259) @ 1310000: uvm_test_top.env.scb [scoreboard] [1310000]: DUT: WRITE_RESPONSE=2 READ_DATA=0 READ_RESPONSE=2

-------------------FAIL:[32]---------------------------
UVM_INFO scoreboard.sv(252) @ 1330000: uvm_test_top.env.scb [scoreboard] [1330000] INPUT
UVM_INFO scoreboard.sv(253) @ 1330000: uvm_test_top.env.scb [scoreboard] AWVALID=1 AWREADY=0 AWADDR=32
UVM_INFO scoreboard.sv(254) @ 1330000: uvm_test_top.env.scb [scoreboard] WVALID =0 WREADY =1 WDATA=3348765053 WSTRB=15
UVM_INFO scoreboard.sv(255) @ 1330000: uvm_test_top.env.scb [scoreboard] BVALID =0 BREADY =0
UVM_INFO scoreboard.sv(256) @ 1330000: uvm_test_top.env.scb [scoreboard] ARVALID=0 ARREADY=1 ARADDR=0
UVM_INFO scoreboard.sv(257) @ 1330000: uvm_test_top.env.scb [scoreboard] RVALID =0 RREADY =0
UVM_INFO scoreboard.sv(258) @ 1330000: uvm_test_top.env.scb [scoreboard] [1330000]: REF: WRITE_RESPONSE=0 READ_DATA=0 READ_RESPONSE=2
UVM_INFO scoreboard.sv(259) @ 1330000: uvm_test_top.env.scb [scoreboard] [1330000]: DUT: WRITE_RESPONSE=2 READ_DATA=0 READ_RESPONSE=2

-------------------FAIL:[33]---------------------------
UVM_INFO scoreboard.sv(252) @ 1350000: uvm_test_top.env.scb [scoreboard] [1350000] INPUT
UVM_INFO scoreboard.sv(253) @ 1350000: uvm_test_top.env.scb [scoreboard] AWVALID=1 AWREADY=0 AWADDR=32
UVM_INFO scoreboard.sv(254) @ 1350000: uvm_test_top.env.scb [scoreboard] WVALID =0 WREADY =1 WDATA=210406375 WSTRB=15
UVM_INFO scoreboard.sv(255) @ 1350000: uvm_test_top.env.scb [scoreboard] BVALID =0 BREADY =0
UVM_INFO scoreboard.sv(256) @ 1350000: uvm_test_top.env.scb [scoreboard] ARVALID=1 ARREADY=0 ARADDR=40
UVM_INFO scoreboard.sv(257) @ 1350000: uvm_test_top.env.scb [scoreboard] RVALID =1 RREADY =0
UVM_INFO scoreboard.sv(258) @ 1350000: uvm_test_top.env.scb [scoreboard] [1350000]: REF: WRITE_RESPONSE=0 READ_DATA=0 READ_RESPONSE=2
UVM_INFO scoreboard.sv(259) @ 1350000: uvm_test_top.env.scb [scoreboard] [1350000]: DUT: WRITE_RESPONSE=2 READ_DATA=1150107578 READ_RESPONSE=0

-------------------FAIL:[34]---------------------------
UVM_INFO scoreboard.sv(252) @ 1370000: uvm_test_top.env.scb [scoreboard] [1370000] INPUT
UVM_INFO scoreboard.sv(253) @ 1370000: uvm_test_top.env.scb [scoreboard] AWVALID=1 AWREADY=0 AWADDR=32
UVM_INFO scoreboard.sv(254) @ 1370000: uvm_test_top.env.scb [scoreboard] WVALID =0 WREADY =1 WDATA=924500849 WSTRB=15
UVM_INFO scoreboard.sv(255) @ 1370000: uvm_test_top.env.scb [scoreboard] BVALID =0 BREADY =1
UVM_INFO scoreboard.sv(256) @ 1370000: uvm_test_top.env.scb [scoreboard] ARVALID=1 ARREADY=0 ARADDR=24
UVM_INFO scoreboard.sv(257) @ 1370000: uvm_test_top.env.scb [scoreboard] RVALID =1 RREADY =0
UVM_INFO scoreboard.sv(258) @ 1370000: uvm_test_top.env.scb [scoreboard] [1370000]: REF: WRITE_RESPONSE=0 READ_DATA=0 READ_RESPONSE=2
UVM_INFO scoreboard.sv(259) @ 1370000: uvm_test_top.env.scb [scoreboard] [1370000]: DUT: WRITE_RESPONSE=2 READ_DATA=1150107578 READ_RESPONSE=0

-------------------FAIL:[35]---------------------------
UVM_INFO scoreboard.sv(252) @ 1390000: uvm_test_top.env.scb [scoreboard] [1390000] INPUT
UVM_INFO scoreboard.sv(253) @ 1390000: uvm_test_top.env.scb [scoreboard] AWVALID=1 AWREADY=0 AWADDR=32
UVM_INFO scoreboard.sv(254) @ 1390000: uvm_test_top.env.scb [scoreboard] WVALID =0 WREADY =1 WDATA=3965125703 WSTRB=15
UVM_INFO scoreboard.sv(255) @ 1390000: uvm_test_top.env.scb [scoreboard] BVALID =0 BREADY =1
UVM_INFO scoreboard.sv(256) @ 1390000: uvm_test_top.env.scb [scoreboard] ARVALID=1 ARREADY=0 ARADDR=24
UVM_INFO scoreboard.sv(257) @ 1390000: uvm_test_top.env.scb [scoreboard] RVALID =1 RREADY =0
UVM_INFO scoreboard.sv(258) @ 1390000: uvm_test_top.env.scb [scoreboard] [1390000]: REF: WRITE_RESPONSE=0 READ_DATA=0 READ_RESPONSE=2
UVM_INFO scoreboard.sv(259) @ 1390000: uvm_test_top.env.scb [scoreboard] [1390000]: DUT: WRITE_RESPONSE=2 READ_DATA=1150107578 READ_RESPONSE=0

-------------------FAIL:[36]---------------------------
UVM_INFO scoreboard.sv(252) @ 1410000: uvm_test_top.env.scb [scoreboard] [1410000] INPUT
UVM_INFO scoreboard.sv(253) @ 1410000: uvm_test_top.env.scb [scoreboard] AWVALID=1 AWREADY=0 AWADDR=32
UVM_INFO scoreboard.sv(254) @ 1410000: uvm_test_top.env.scb [scoreboard] WVALID =1 WREADY =0 WDATA=991016573 WSTRB=15
UVM_INFO scoreboard.sv(255) @ 1410000: uvm_test_top.env.scb [scoreboard] BVALID =0 BREADY =0
UVM_INFO scoreboard.sv(256) @ 1410000: uvm_test_top.env.scb [scoreboard] ARVALID=1 ARREADY=0 ARADDR=24
UVM_INFO scoreboard.sv(257) @ 1410000: uvm_test_top.env.scb [scoreboard] RVALID =0 RREADY =1
UVM_INFO scoreboard.sv(258) @ 1410000: uvm_test_top.env.scb [scoreboard] [1410000]: REF: WRITE_RESPONSE=0 READ_DATA=0 READ_RESPONSE=2
UVM_INFO scoreboard.sv(259) @ 1410000: uvm_test_top.env.scb [scoreboard] [1410000]: DUT: WRITE_RESPONSE=2 READ_DATA=1150107578 READ_RESPONSE=0

-------------------FAIL:[37]---------------------------
UVM_INFO scoreboard.sv(252) @ 1430000: uvm_test_top.env.scb [scoreboard] [1430000] INPUT
UVM_INFO scoreboard.sv(253) @ 1430000: uvm_test_top.env.scb [scoreboard] AWVALID=1 AWREADY=0 AWADDR=32
UVM_INFO scoreboard.sv(254) @ 1430000: uvm_test_top.env.scb [scoreboard] WVALID =0 WREADY =0 WDATA=2326200341 WSTRB=15
UVM_INFO scoreboard.sv(255) @ 1430000: uvm_test_top.env.scb [scoreboard] BVALID =1 BREADY =1
UVM_INFO scoreboard.sv(256) @ 1430000: uvm_test_top.env.scb [scoreboard] ARVALID=1 ARREADY=1 ARADDR=24
UVM_INFO scoreboard.sv(257) @ 1430000: uvm_test_top.env.scb [scoreboard] RVALID =0 RREADY =1
UVM_INFO scoreboard.sv(258) @ 1430000: uvm_test_top.env.scb [scoreboard] [1430000]: REF: WRITE_RESPONSE=0 READ_DATA=0 READ_RESPONSE=2
UVM_INFO scoreboard.sv(259) @ 1430000: uvm_test_top.env.scb [scoreboard] [1430000]: DUT: WRITE_RESPONSE=0 READ_DATA=1150107578 READ_RESPONSE=0

-------------------PASS:[33]---------------------------
UVM_INFO scoreboard.sv(237) @ 1450000: uvm_test_top.env.scb [scoreboard] [1450000] INPUT
UVM_INFO scoreboard.sv(238) @ 1450000: uvm_test_top.env.scb [scoreboard] AWVALID=1 AWREADY=0 AWADDR=32
UVM_INFO scoreboard.sv(239) @ 1450000: uvm_test_top.env.scb [scoreboard] WVALID =0 WREADY =0 WDATA=3348373400 WSTRB=15
UVM_INFO scoreboard.sv(240) @ 1450000: uvm_test_top.env.scb [scoreboard] BVALID =0 BREADY =1
UVM_INFO scoreboard.sv(241) @ 1450000: uvm_test_top.env.scb [scoreboard] ARVALID=1 ARREADY=0 ARADDR=24
UVM_INFO scoreboard.sv(242) @ 1450000: uvm_test_top.env.scb [scoreboard] RVALID =1 RREADY =0
UVM_INFO scoreboard.sv(243) @ 1450000: uvm_test_top.env.scb [scoreboard] [1450000]: REF: WRITE_RESPONSE=0 READ_DATA=0 READ_RESPONSE=0
UVM_INFO scoreboard.sv(244) @ 1450000: uvm_test_top.env.scb [scoreboard] [1450000]: DUT: WRITE_RESPONSE=0 READ_DATA=0 READ_RESPONSE=0

-------------------PASS:[34]---------------------------
UVM_INFO scoreboard.sv(237) @ 1470000: uvm_test_top.env.scb [scoreboard] [1470000] INPUT
UVM_INFO scoreboard.sv(238) @ 1470000: uvm_test_top.env.scb [scoreboard] AWVALID=1 AWREADY=1 AWADDR=32
UVM_INFO scoreboard.sv(239) @ 1470000: uvm_test_top.env.scb [scoreboard] WVALID =0 WREADY =1 WDATA=2221452712 WSTRB=15
UVM_INFO scoreboard.sv(240) @ 1470000: uvm_test_top.env.scb [scoreboard] BVALID =0 BREADY =0
UVM_INFO scoreboard.sv(241) @ 1470000: uvm_test_top.env.scb [scoreboard] ARVALID=0 ARREADY=0 ARADDR=8
UVM_INFO scoreboard.sv(242) @ 1470000: uvm_test_top.env.scb [scoreboard] RVALID =0 RREADY =1
UVM_INFO scoreboard.sv(243) @ 1470000: uvm_test_top.env.scb [scoreboard] [1470000]: REF: WRITE_RESPONSE=0 READ_DATA=0 READ_RESPONSE=0
UVM_INFO scoreboard.sv(244) @ 1470000: uvm_test_top.env.scb [scoreboard] [1470000]: DUT: WRITE_RESPONSE=0 READ_DATA=0 READ_RESPONSE=0

-------------------PASS:[35]---------------------------
UVM_INFO scoreboard.sv(237) @ 1490000: uvm_test_top.env.scb [scoreboard] [1490000] INPUT
UVM_INFO scoreboard.sv(238) @ 1490000: uvm_test_top.env.scb [scoreboard] AWVALID=1 AWREADY=0 AWADDR=32
UVM_INFO scoreboard.sv(239) @ 1490000: uvm_test_top.env.scb [scoreboard] WVALID =1 WREADY =0 WDATA=608634599 WSTRB=15
UVM_INFO scoreboard.sv(240) @ 1490000: uvm_test_top.env.scb [scoreboard] BVALID =0 BREADY =0
UVM_INFO scoreboard.sv(241) @ 1490000: uvm_test_top.env.scb [scoreboard] ARVALID=0 ARREADY=1 ARADDR=20
UVM_INFO scoreboard.sv(242) @ 1490000: uvm_test_top.env.scb [scoreboard] RVALID =0 RREADY =1
UVM_INFO scoreboard.sv(243) @ 1490000: uvm_test_top.env.scb [scoreboard] [1490000]: REF: WRITE_RESPONSE=0 READ_DATA=0 READ_RESPONSE=0
UVM_INFO scoreboard.sv(244) @ 1490000: uvm_test_top.env.scb [scoreboard] [1490000]: DUT: WRITE_RESPONSE=0 READ_DATA=0 READ_RESPONSE=0

-------------------PASS:[36]---------------------------
UVM_INFO scoreboard.sv(237) @ 1510000: uvm_test_top.env.scb [scoreboard] [1510000] INPUT
UVM_INFO scoreboard.sv(238) @ 1510000: uvm_test_top.env.scb [scoreboard] AWVALID=1 AWREADY=0 AWADDR=12
UVM_INFO scoreboard.sv(239) @ 1510000: uvm_test_top.env.scb [scoreboard] WVALID =0 WREADY =0 WDATA=4023066656 WSTRB=15
UVM_INFO scoreboard.sv(240) @ 1510000: uvm_test_top.env.scb [scoreboard] BVALID =1 BREADY =0
UVM_INFO scoreboard.sv(241) @ 1510000: uvm_test_top.env.scb [scoreboard] ARVALID=1 ARREADY=0 ARADDR=8
UVM_INFO scoreboard.sv(242) @ 1510000: uvm_test_top.env.scb [scoreboard] RVALID =1 RREADY =0
UVM_INFO scoreboard.sv(243) @ 1510000: uvm_test_top.env.scb [scoreboard] [1510000]: REF: WRITE_RESPONSE=0 READ_DATA=0 READ_RESPONSE=0
UVM_INFO scoreboard.sv(244) @ 1510000: uvm_test_top.env.scb [scoreboard] [1510000]: DUT: WRITE_RESPONSE=0 READ_DATA=0 READ_RESPONSE=0

-------------------PASS:[37]---------------------------
UVM_INFO scoreboard.sv(237) @ 1530000: uvm_test_top.env.scb [scoreboard] [1530000] INPUT
UVM_INFO scoreboard.sv(238) @ 1530000: uvm_test_top.env.scb [scoreboard] AWVALID=1 AWREADY=0 AWADDR=12
UVM_INFO scoreboard.sv(239) @ 1530000: uvm_test_top.env.scb [scoreboard] WVALID =0 WREADY =0 WDATA=1597950471 WSTRB=15
UVM_INFO scoreboard.sv(240) @ 1530000: uvm_test_top.env.scb [scoreboard] BVALID =1 BREADY =0
UVM_INFO scoreboard.sv(241) @ 1530000: uvm_test_top.env.scb [scoreboard] ARVALID=0 ARREADY=0 ARADDR=32
UVM_INFO scoreboard.sv(242) @ 1530000: uvm_test_top.env.scb [scoreboard] RVALID =0 RREADY =1
UVM_INFO scoreboard.sv(243) @ 1530000: uvm_test_top.env.scb [scoreboard] [1530000]: REF: WRITE_RESPONSE=0 READ_DATA=0 READ_RESPONSE=0
UVM_INFO scoreboard.sv(244) @ 1530000: uvm_test_top.env.scb [scoreboard] [1530000]: DUT: WRITE_RESPONSE=0 READ_DATA=0 READ_RESPONSE=0

-------------------PASS:[38]---------------------------
UVM_INFO scoreboard.sv(237) @ 1550000: uvm_test_top.env.scb [scoreboard] [1550000] INPUT
UVM_INFO scoreboard.sv(238) @ 1550000: uvm_test_top.env.scb [scoreboard] AWVALID=1 AWREADY=0 AWADDR=12
UVM_INFO scoreboard.sv(239) @ 1550000: uvm_test_top.env.scb [scoreboard] WVALID =0 WREADY =0 WDATA=2914203876 WSTRB=15
UVM_INFO scoreboard.sv(240) @ 1550000: uvm_test_top.env.scb [scoreboard] BVALID =0 BREADY =1
UVM_INFO scoreboard.sv(241) @ 1550000: uvm_test_top.env.scb [scoreboard] ARVALID=0 ARREADY=1 ARADDR=12
UVM_INFO scoreboard.sv(242) @ 1550000: uvm_test_top.env.scb [scoreboard] RVALID =0 RREADY =0
UVM_INFO scoreboard.sv(243) @ 1550000: uvm_test_top.env.scb [scoreboard] [1550000]: REF: WRITE_RESPONSE=0 READ_DATA=0 READ_RESPONSE=0
UVM_INFO scoreboard.sv(244) @ 1550000: uvm_test_top.env.scb [scoreboard] [1550000]: DUT: WRITE_RESPONSE=0 READ_DATA=0 READ_RESPONSE=0

-------------------PASS:[39]---------------------------
UVM_INFO scoreboard.sv(237) @ 1570000: uvm_test_top.env.scb [scoreboard] [1570000] INPUT
UVM_INFO scoreboard.sv(238) @ 1570000: uvm_test_top.env.scb [scoreboard] AWVALID=1 AWREADY=1 AWADDR=12
UVM_INFO scoreboard.sv(239) @ 1570000: uvm_test_top.env.scb [scoreboard] WVALID =1 WREADY =1 WDATA=1890579428 WSTRB=15
UVM_INFO scoreboard.sv(240) @ 1570000: uvm_test_top.env.scb [scoreboard] BVALID =0 BREADY =1
UVM_INFO scoreboard.sv(241) @ 1570000: uvm_test_top.env.scb [scoreboard] ARVALID=1 ARREADY=0 ARADDR=8
UVM_INFO scoreboard.sv(242) @ 1570000: uvm_test_top.env.scb [scoreboard] RVALID =1 RREADY =0
UVM_INFO scoreboard.sv(243) @ 1570000: uvm_test_top.env.scb [scoreboard] [1570000]: REF: WRITE_RESPONSE=0 READ_DATA=0 READ_RESPONSE=0
UVM_INFO scoreboard.sv(244) @ 1570000: uvm_test_top.env.scb [scoreboard] [1570000]: DUT: WRITE_RESPONSE=0 READ_DATA=0 READ_RESPONSE=0

-------------------PASS:[40]---------------------------
UVM_INFO scoreboard.sv(237) @ 1590000: uvm_test_top.env.scb [scoreboard] [1590000] INPUT
UVM_INFO scoreboard.sv(238) @ 1590000: uvm_test_top.env.scb [scoreboard] AWVALID=1 AWREADY=0 AWADDR=12
UVM_INFO scoreboard.sv(239) @ 1590000: uvm_test_top.env.scb [scoreboard] WVALID =1 WREADY =0 WDATA=1890579428 WSTRB=15
UVM_INFO scoreboard.sv(240) @ 1590000: uvm_test_top.env.scb [scoreboard] BVALID =0 BREADY =1
UVM_INFO scoreboard.sv(241) @ 1590000: uvm_test_top.env.scb [scoreboard] ARVALID=0 ARREADY=0 ARADDR=20
UVM_INFO scoreboard.sv(242) @ 1590000: uvm_test_top.env.scb [scoreboard] RVALID =0 RREADY =1
UVM_INFO scoreboard.sv(243) @ 1590000: uvm_test_top.env.scb [scoreboard] [1590000]: REF: WRITE_RESPONSE=0 READ_DATA=0 READ_RESPONSE=0
UVM_INFO scoreboard.sv(244) @ 1590000: uvm_test_top.env.scb [scoreboard] [1590000]: DUT: WRITE_RESPONSE=0 READ_DATA=0 READ_RESPONSE=0

-------------------PASS:[41]---------------------------
UVM_INFO scoreboard.sv(237) @ 1610000: uvm_test_top.env.scb [scoreboard] [1610000] INPUT
UVM_INFO scoreboard.sv(238) @ 1610000: uvm_test_top.env.scb [scoreboard] AWVALID=1 AWREADY=0 AWADDR=4
UVM_INFO scoreboard.sv(239) @ 1610000: uvm_test_top.env.scb [scoreboard] WVALID =0 WREADY =0 WDATA=4101992951 WSTRB=15
UVM_INFO scoreboard.sv(240) @ 1610000: uvm_test_top.env.scb [scoreboard] BVALID =1 BREADY =0
UVM_INFO scoreboard.sv(241) @ 1610000: uvm_test_top.env.scb [scoreboard] ARVALID=0 ARREADY=1 ARADDR=20
UVM_INFO scoreboard.sv(242) @ 1610000: uvm_test_top.env.scb [scoreboard] RVALID =0 RREADY =0
UVM_INFO scoreboard.sv(243) @ 1610000: uvm_test_top.env.scb [scoreboard] [1610000]: REF: WRITE_RESPONSE=0 READ_DATA=0 READ_RESPONSE=0
UVM_INFO scoreboard.sv(244) @ 1610000: uvm_test_top.env.scb [scoreboard] [1610000]: DUT: WRITE_RESPONSE=0 READ_DATA=0 READ_RESPONSE=0

-------------------PASS:[42]---------------------------
UVM_INFO scoreboard.sv(237) @ 1630000: uvm_test_top.env.scb [scoreboard] [1630000] INPUT
UVM_INFO scoreboard.sv(238) @ 1630000: uvm_test_top.env.scb [scoreboard] AWVALID=1 AWREADY=0 AWADDR=4
UVM_INFO scoreboard.sv(239) @ 1630000: uvm_test_top.env.scb [scoreboard] WVALID =0 WREADY =0 WDATA=201977007 WSTRB=15
UVM_INFO scoreboard.sv(240) @ 1630000: uvm_test_top.env.scb [scoreboard] BVALID =1 BREADY =0
UVM_INFO scoreboard.sv(241) @ 1630000: uvm_test_top.env.scb [scoreboard] ARVALID=0 ARREADY=1 ARADDR=56
UVM_INFO scoreboard.sv(242) @ 1630000: uvm_test_top.env.scb [scoreboard] RVALID =0 RREADY =1
UVM_INFO scoreboard.sv(243) @ 1630000: uvm_test_top.env.scb [scoreboard] [1630000]: REF: WRITE_RESPONSE=0 READ_DATA=0 READ_RESPONSE=0
UVM_INFO scoreboard.sv(244) @ 1630000: uvm_test_top.env.scb [scoreboard] [1630000]: DUT: WRITE_RESPONSE=0 READ_DATA=0 READ_RESPONSE=0

-------------------PASS:[43]---------------------------
UVM_INFO scoreboard.sv(237) @ 1650000: uvm_test_top.env.scb [scoreboard] [1650000] INPUT
UVM_INFO scoreboard.sv(238) @ 1650000: uvm_test_top.env.scb [scoreboard] AWVALID=1 AWREADY=0 AWADDR=4
UVM_INFO scoreboard.sv(239) @ 1650000: uvm_test_top.env.scb [scoreboard] WVALID =1 WREADY =0 WDATA=530580945 WSTRB=15
UVM_INFO scoreboard.sv(240) @ 1650000: uvm_test_top.env.scb [scoreboard] BVALID =1 BREADY =0
UVM_INFO scoreboard.sv(241) @ 1650000: uvm_test_top.env.scb [scoreboard] ARVALID=0 ARREADY=1 ARADDR=8
UVM_INFO scoreboard.sv(242) @ 1650000: uvm_test_top.env.scb [scoreboard] RVALID =0 RREADY =0
UVM_INFO scoreboard.sv(243) @ 1650000: uvm_test_top.env.scb [scoreboard] [1650000]: REF: WRITE_RESPONSE=0 READ_DATA=0 READ_RESPONSE=0
UVM_INFO scoreboard.sv(244) @ 1650000: uvm_test_top.env.scb [scoreboard] [1650000]: DUT: WRITE_RESPONSE=0 READ_DATA=0 READ_RESPONSE=0

-------------------PASS:[44]---------------------------
UVM_INFO scoreboard.sv(237) @ 1670000: uvm_test_top.env.scb [scoreboard] [1670000] INPUT
UVM_INFO scoreboard.sv(238) @ 1670000: uvm_test_top.env.scb [scoreboard] AWVALID=1 AWREADY=0 AWADDR=4
UVM_INFO scoreboard.sv(239) @ 1670000: uvm_test_top.env.scb [scoreboard] WVALID =1 WREADY =0 WDATA=530580945 WSTRB=15
UVM_INFO scoreboard.sv(240) @ 1670000: uvm_test_top.env.scb [scoreboard] BVALID =0 BREADY =1
UVM_INFO scoreboard.sv(241) @ 1670000: uvm_test_top.env.scb [scoreboard] ARVALID=0 ARREADY=1 ARADDR=40
UVM_INFO scoreboard.sv(242) @ 1670000: uvm_test_top.env.scb [scoreboard] RVALID =0 RREADY =0
UVM_INFO scoreboard.sv(243) @ 1670000: uvm_test_top.env.scb [scoreboard] [1670000]: REF: WRITE_RESPONSE=0 READ_DATA=0 READ_RESPONSE=0
UVM_INFO scoreboard.sv(244) @ 1670000: uvm_test_top.env.scb [scoreboard] [1670000]: DUT: WRITE_RESPONSE=0 READ_DATA=0 READ_RESPONSE=0

-------------------PASS:[45]---------------------------
UVM_INFO scoreboard.sv(237) @ 1690000: uvm_test_top.env.scb [scoreboard] [1690000] INPUT
UVM_INFO scoreboard.sv(238) @ 1690000: uvm_test_top.env.scb [scoreboard] AWVALID=1 AWREADY=1 AWADDR=4
UVM_INFO scoreboard.sv(239) @ 1690000: uvm_test_top.env.scb [scoreboard] WVALID =1 WREADY =1 WDATA=530580945 WSTRB=15
UVM_INFO scoreboard.sv(240) @ 1690000: uvm_test_top.env.scb [scoreboard] BVALID =0 BREADY =1
UVM_INFO scoreboard.sv(241) @ 1690000: uvm_test_top.env.scb [scoreboard] ARVALID=0 ARREADY=1 ARADDR=32
UVM_INFO scoreboard.sv(242) @ 1690000: uvm_test_top.env.scb [scoreboard] RVALID =0 RREADY =1
UVM_INFO scoreboard.sv(243) @ 1690000: uvm_test_top.env.scb [scoreboard] [1690000]: REF: WRITE_RESPONSE=0 READ_DATA=0 READ_RESPONSE=0
UVM_INFO scoreboard.sv(244) @ 1690000: uvm_test_top.env.scb [scoreboard] [1690000]: DUT: WRITE_RESPONSE=0 READ_DATA=0 READ_RESPONSE=0

-------------------PASS:[46]---------------------------
UVM_INFO scoreboard.sv(237) @ 1710000: uvm_test_top.env.scb [scoreboard] [1710000] INPUT
UVM_INFO scoreboard.sv(238) @ 1710000: uvm_test_top.env.scb [scoreboard] AWVALID=1 AWREADY=0 AWADDR=4
UVM_INFO scoreboard.sv(239) @ 1710000: uvm_test_top.env.scb [scoreboard] WVALID =1 WREADY =0 WDATA=530580945 WSTRB=15
UVM_INFO scoreboard.sv(240) @ 1710000: uvm_test_top.env.scb [scoreboard] BVALID =0 BREADY =0
UVM_INFO scoreboard.sv(241) @ 1710000: uvm_test_top.env.scb [scoreboard] ARVALID=0 ARREADY=1 ARADDR=8
UVM_INFO scoreboard.sv(242) @ 1710000: uvm_test_top.env.scb [scoreboard] RVALID =0 RREADY =0
UVM_INFO scoreboard.sv(243) @ 1710000: uvm_test_top.env.scb [scoreboard] [1710000]: REF: WRITE_RESPONSE=0 READ_DATA=0 READ_RESPONSE=0
UVM_INFO scoreboard.sv(244) @ 1710000: uvm_test_top.env.scb [scoreboard] [1710000]: DUT: WRITE_RESPONSE=0 READ_DATA=0 READ_RESPONSE=0

-------------------PASS:[47]---------------------------
UVM_INFO scoreboard.sv(237) @ 1730000: uvm_test_top.env.scb [scoreboard] [1730000] INPUT
UVM_INFO scoreboard.sv(238) @ 1730000: uvm_test_top.env.scb [scoreboard] AWVALID=0 AWREADY=0 AWADDR=8
UVM_INFO scoreboard.sv(239) @ 1730000: uvm_test_top.env.scb [scoreboard] WVALID =0 WREADY =0 WDATA=2186835369 WSTRB=15
UVM_INFO scoreboard.sv(240) @ 1730000: uvm_test_top.env.scb [scoreboard] BVALID =1 BREADY =0
UVM_INFO scoreboard.sv(241) @ 1730000: uvm_test_top.env.scb [scoreboard] ARVALID=0 ARREADY=1 ARADDR=16
UVM_INFO scoreboard.sv(242) @ 1730000: uvm_test_top.env.scb [scoreboard] RVALID =0 RREADY =0
UVM_INFO scoreboard.sv(243) @ 1730000: uvm_test_top.env.scb [scoreboard] [1730000]: REF: WRITE_RESPONSE=0 READ_DATA=0 READ_RESPONSE=0
UVM_INFO scoreboard.sv(244) @ 1730000: uvm_test_top.env.scb [scoreboard] [1730000]: DUT: WRITE_RESPONSE=0 READ_DATA=0 READ_RESPONSE=0

-------------------PASS:[48]---------------------------
UVM_INFO scoreboard.sv(237) @ 1750000: uvm_test_top.env.scb [scoreboard] [1750000] INPUT
UVM_INFO scoreboard.sv(238) @ 1750000: uvm_test_top.env.scb [scoreboard] AWVALID=1 AWREADY=0 AWADDR=56
UVM_INFO scoreboard.sv(239) @ 1750000: uvm_test_top.env.scb [scoreboard] WVALID =0 WREADY =0 WDATA=2311283407 WSTRB=15
UVM_INFO scoreboard.sv(240) @ 1750000: uvm_test_top.env.scb [scoreboard] BVALID =0 BREADY =1
UVM_INFO scoreboard.sv(241) @ 1750000: uvm_test_top.env.scb [scoreboard] ARVALID=0 ARREADY=1 ARADDR=28
UVM_INFO scoreboard.sv(242) @ 1750000: uvm_test_top.env.scb [scoreboard] RVALID =0 RREADY =1
UVM_INFO scoreboard.sv(243) @ 1750000: uvm_test_top.env.scb [scoreboard] [1750000]: REF: WRITE_RESPONSE=0 READ_DATA=0 READ_RESPONSE=0
UVM_INFO scoreboard.sv(244) @ 1750000: uvm_test_top.env.scb [scoreboard] [1750000]: DUT: WRITE_RESPONSE=0 READ_DATA=0 READ_RESPONSE=0

-------------------PASS:[49]---------------------------
UVM_INFO scoreboard.sv(237) @ 1770000: uvm_test_top.env.scb [scoreboard] [1770000] INPUT
UVM_INFO scoreboard.sv(238) @ 1770000: uvm_test_top.env.scb [scoreboard] AWVALID=1 AWREADY=1 AWADDR=56
UVM_INFO scoreboard.sv(239) @ 1770000: uvm_test_top.env.scb [scoreboard] WVALID =0 WREADY =1 WDATA=3446203072 WSTRB=15
UVM_INFO scoreboard.sv(240) @ 1770000: uvm_test_top.env.scb [scoreboard] BVALID =0 BREADY =1
UVM_INFO scoreboard.sv(241) @ 1770000: uvm_test_top.env.scb [scoreboard] ARVALID=0 ARREADY=1 ARADDR=20
UVM_INFO scoreboard.sv(242) @ 1770000: uvm_test_top.env.scb [scoreboard] RVALID =0 RREADY =1
UVM_INFO scoreboard.sv(243) @ 1770000: uvm_test_top.env.scb [scoreboard] [1770000]: REF: WRITE_RESPONSE=0 READ_DATA=0 READ_RESPONSE=0
UVM_INFO scoreboard.sv(244) @ 1770000: uvm_test_top.env.scb [scoreboard] [1770000]: DUT: WRITE_RESPONSE=0 READ_DATA=0 READ_RESPONSE=0

-------------------PASS:[50]---------------------------
UVM_INFO scoreboard.sv(237) @ 1790000: uvm_test_top.env.scb [scoreboard] [1790000] INPUT
UVM_INFO scoreboard.sv(238) @ 1790000: uvm_test_top.env.scb [scoreboard] AWVALID=1 AWREADY=0 AWADDR=56
UVM_INFO scoreboard.sv(239) @ 1790000: uvm_test_top.env.scb [scoreboard] WVALID =0 WREADY =1 WDATA=3697762894 WSTRB=15
UVM_INFO scoreboard.sv(240) @ 1790000: uvm_test_top.env.scb [scoreboard] BVALID =0 BREADY =0
UVM_INFO scoreboard.sv(241) @ 1790000: uvm_test_top.env.scb [scoreboard] ARVALID=1 ARREADY=0 ARADDR=48
UVM_INFO scoreboard.sv(242) @ 1790000: uvm_test_top.env.scb [scoreboard] RVALID =1 RREADY =1
UVM_INFO scoreboard.sv(243) @ 1790000: uvm_test_top.env.scb [scoreboard] [1790000]: REF: WRITE_RESPONSE=0 READ_DATA=0 READ_RESPONSE=0
UVM_INFO scoreboard.sv(244) @ 1790000: uvm_test_top.env.scb [scoreboard] [1790000]: DUT: WRITE_RESPONSE=0 READ_DATA=0 READ_RESPONSE=0

-------------------PASS:[51]---------------------------
UVM_INFO scoreboard.sv(237) @ 1810000: uvm_test_top.env.scb [scoreboard] [1810000] INPUT
UVM_INFO scoreboard.sv(238) @ 1810000: uvm_test_top.env.scb [scoreboard] AWVALID=0 AWREADY=0 AWADDR=4
UVM_INFO scoreboard.sv(239) @ 1810000: uvm_test_top.env.scb [scoreboard] WVALID =1 WREADY =0 WDATA=784478004 WSTRB=15
UVM_INFO scoreboard.sv(240) @ 1810000: uvm_test_top.env.scb [scoreboard] BVALID =0 BREADY =1
UVM_INFO scoreboard.sv(241) @ 1810000: uvm_test_top.env.scb [scoreboard] ARVALID=1 ARREADY=0 ARADDR=20
UVM_INFO scoreboard.sv(242) @ 1810000: uvm_test_top.env.scb [scoreboard] RVALID =0 RREADY =1
UVM_INFO scoreboard.sv(243) @ 1810000: uvm_test_top.env.scb [scoreboard] [1810000]: REF: WRITE_RESPONSE=0 READ_DATA=0 READ_RESPONSE=0
UVM_INFO scoreboard.sv(244) @ 1810000: uvm_test_top.env.scb [scoreboard] [1810000]: DUT: WRITE_RESPONSE=0 READ_DATA=0 READ_RESPONSE=0

-------------------PASS:[52]---------------------------
UVM_INFO scoreboard.sv(237) @ 1830000: uvm_test_top.env.scb [scoreboard] [1830000] INPUT
UVM_INFO scoreboard.sv(238) @ 1830000: uvm_test_top.env.scb [scoreboard] AWVALID=1 AWREADY=0 AWADDR=24
UVM_INFO scoreboard.sv(239) @ 1830000: uvm_test_top.env.scb [scoreboard] WVALID =0 WREADY =0 WDATA=516215493 WSTRB=15
UVM_INFO scoreboard.sv(240) @ 1830000: uvm_test_top.env.scb [scoreboard] BVALID =1 BREADY =0
UVM_INFO scoreboard.sv(241) @ 1830000: uvm_test_top.env.scb [scoreboard] ARVALID=1 ARREADY=1 ARADDR=20
UVM_INFO scoreboard.sv(242) @ 1830000: uvm_test_top.env.scb [scoreboard] RVALID =0 RREADY =1
UVM_INFO scoreboard.sv(243) @ 1830000: uvm_test_top.env.scb [scoreboard] [1830000]: REF: WRITE_RESPONSE=0 READ_DATA=0 READ_RESPONSE=0
UVM_INFO scoreboard.sv(244) @ 1830000: uvm_test_top.env.scb [scoreboard] [1830000]: DUT: WRITE_RESPONSE=0 READ_DATA=0 READ_RESPONSE=0

-------------------PASS:[53]---------------------------
UVM_INFO scoreboard.sv(237) @ 1850000: uvm_test_top.env.scb [scoreboard] [1850000] INPUT
UVM_INFO scoreboard.sv(238) @ 1850000: uvm_test_top.env.scb [scoreboard] AWVALID=1 AWREADY=0 AWADDR=24
UVM_INFO scoreboard.sv(239) @ 1850000: uvm_test_top.env.scb [scoreboard] WVALID =0 WREADY =0 WDATA=3101621186 WSTRB=15
UVM_INFO scoreboard.sv(240) @ 1850000: uvm_test_top.env.scb [scoreboard] BVALID =1 BREADY =0
UVM_INFO scoreboard.sv(241) @ 1850000: uvm_test_top.env.scb [scoreboard] ARVALID=1 ARREADY=0 ARADDR=20
UVM_INFO scoreboard.sv(242) @ 1850000: uvm_test_top.env.scb [scoreboard] RVALID =1 RREADY =1
UVM_INFO scoreboard.sv(243) @ 1850000: uvm_test_top.env.scb [scoreboard] [1850000]: REF: WRITE_RESPONSE=0 READ_DATA=0 READ_RESPONSE=0
UVM_INFO scoreboard.sv(244) @ 1850000: uvm_test_top.env.scb [scoreboard] [1850000]: DUT: WRITE_RESPONSE=0 READ_DATA=0 READ_RESPONSE=0

-------------------PASS:[54]---------------------------
UVM_INFO scoreboard.sv(237) @ 1870000: uvm_test_top.env.scb [scoreboard] [1870000] INPUT
UVM_INFO scoreboard.sv(238) @ 1870000: uvm_test_top.env.scb [scoreboard] AWVALID=1 AWREADY=0 AWADDR=24
UVM_INFO scoreboard.sv(239) @ 1870000: uvm_test_top.env.scb [scoreboard] WVALID =1 WREADY =0 WDATA=2110838938 WSTRB=15
UVM_INFO scoreboard.sv(240) @ 1870000: uvm_test_top.env.scb [scoreboard] BVALID =0 BREADY =1
UVM_INFO scoreboard.sv(241) @ 1870000: uvm_test_top.env.scb [scoreboard] ARVALID=0 ARREADY=0 ARADDR=52
UVM_INFO scoreboard.sv(242) @ 1870000: uvm_test_top.env.scb [scoreboard] RVALID =0 RREADY =1
UVM_INFO scoreboard.sv(243) @ 1870000: uvm_test_top.env.scb [scoreboard] [1870000]: REF: WRITE_RESPONSE=0 READ_DATA=0 READ_RESPONSE=0
UVM_INFO scoreboard.sv(244) @ 1870000: uvm_test_top.env.scb [scoreboard] [1870000]: DUT: WRITE_RESPONSE=0 READ_DATA=0 READ_RESPONSE=0

-------------------PASS:[55]---------------------------
UVM_INFO scoreboard.sv(237) @ 1890000: uvm_test_top.env.scb [scoreboard] [1890000] INPUT
UVM_INFO scoreboard.sv(238) @ 1890000: uvm_test_top.env.scb [scoreboard] AWVALID=1 AWREADY=1 AWADDR=24
UVM_INFO scoreboard.sv(239) @ 1890000: uvm_test_top.env.scb [scoreboard] WVALID =1 WREADY =1 WDATA=2110838938 WSTRB=15
UVM_INFO scoreboard.sv(240) @ 1890000: uvm_test_top.env.scb [scoreboard] BVALID =0 BREADY =1
UVM_INFO scoreboard.sv(241) @ 1890000: uvm_test_top.env.scb [scoreboard] ARVALID=0 ARREADY=1 ARADDR=44
UVM_INFO scoreboard.sv(242) @ 1890000: uvm_test_top.env.scb [scoreboard] RVALID =0 RREADY =1
UVM_INFO scoreboard.sv(243) @ 1890000: uvm_test_top.env.scb [scoreboard] [1890000]: REF: WRITE_RESPONSE=0 READ_DATA=0 READ_RESPONSE=0
UVM_INFO scoreboard.sv(244) @ 1890000: uvm_test_top.env.scb [scoreboard] [1890000]: DUT: WRITE_RESPONSE=0 READ_DATA=0 READ_RESPONSE=0

-------------------PASS:[56]---------------------------
UVM_INFO scoreboard.sv(237) @ 1910000: uvm_test_top.env.scb [scoreboard] [1910000] INPUT
UVM_INFO scoreboard.sv(238) @ 1910000: uvm_test_top.env.scb [scoreboard] AWVALID=1 AWREADY=0 AWADDR=24
UVM_INFO scoreboard.sv(239) @ 1910000: uvm_test_top.env.scb [scoreboard] WVALID =1 WREADY =0 WDATA=2110838938 WSTRB=15
UVM_INFO scoreboard.sv(240) @ 1910000: uvm_test_top.env.scb [scoreboard] BVALID =0 BREADY =1
UVM_INFO scoreboard.sv(241) @ 1910000: uvm_test_top.env.scb [scoreboard] ARVALID=0 ARREADY=1 ARADDR=60
UVM_INFO scoreboard.sv(242) @ 1910000: uvm_test_top.env.scb [scoreboard] RVALID =0 RREADY =1
UVM_INFO scoreboard.sv(243) @ 1910000: uvm_test_top.env.scb [scoreboard] [1910000]: REF: WRITE_RESPONSE=0 READ_DATA=0 READ_RESPONSE=0
UVM_INFO scoreboard.sv(244) @ 1910000: uvm_test_top.env.scb [scoreboard] [1910000]: DUT: WRITE_RESPONSE=0 READ_DATA=0 READ_RESPONSE=0

-------------------FAIL:[38]---------------------------
UVM_INFO scoreboard.sv(252) @ 1930000: uvm_test_top.env.scb [scoreboard] [1930000] INPUT
UVM_INFO scoreboard.sv(253) @ 1930000: uvm_test_top.env.scb [scoreboard] AWVALID=0 AWREADY=0 AWADDR=60
UVM_INFO scoreboard.sv(254) @ 1930000: uvm_test_top.env.scb [scoreboard] WVALID =0 WREADY =0 WDATA=1551356344 WSTRB=15
UVM_INFO scoreboard.sv(255) @ 1930000: uvm_test_top.env.scb [scoreboard] BVALID =1 BREADY =1
UVM_INFO scoreboard.sv(256) @ 1930000: uvm_test_top.env.scb [scoreboard] ARVALID=1 ARREADY=0 ARADDR=60
UVM_INFO scoreboard.sv(257) @ 1930000: uvm_test_top.env.scb [scoreboard] RVALID =1 RREADY =1
UVM_INFO scoreboard.sv(258) @ 1930000: uvm_test_top.env.scb [scoreboard] [1930000]: REF: WRITE_RESPONSE=0 READ_DATA=0 READ_RESPONSE=0
UVM_INFO scoreboard.sv(259) @ 1930000: uvm_test_top.env.scb [scoreboard] [1930000]: DUT: WRITE_RESPONSE=0 READ_DATA=1852289854 READ_RESPONSE=0

-------------------FAIL:[39]---------------------------
UVM_INFO scoreboard.sv(252) @ 1950000: uvm_test_top.env.scb [scoreboard] [1950000] INPUT
UVM_INFO scoreboard.sv(253) @ 1950000: uvm_test_top.env.scb [scoreboard] AWVALID=1 AWREADY=0 AWADDR=12
UVM_INFO scoreboard.sv(254) @ 1950000: uvm_test_top.env.scb [scoreboard] WVALID =0 WREADY =0 WDATA=4045423676 WSTRB=15
UVM_INFO scoreboard.sv(255) @ 1950000: uvm_test_top.env.scb [scoreboard] BVALID =0 BREADY =1
UVM_INFO scoreboard.sv(256) @ 1950000: uvm_test_top.env.scb [scoreboard] ARVALID=1 ARREADY=0 ARADDR=32
UVM_INFO scoreboard.sv(257) @ 1950000: uvm_test_top.env.scb [scoreboard] RVALID =0 RREADY =1
UVM_INFO scoreboard.sv(258) @ 1950000: uvm_test_top.env.scb [scoreboard] [1950000]: REF: WRITE_RESPONSE=0 READ_DATA=0 READ_RESPONSE=0
UVM_INFO scoreboard.sv(259) @ 1950000: uvm_test_top.env.scb [scoreboard] [1950000]: DUT: WRITE_RESPONSE=0 READ_DATA=1852289854 READ_RESPONSE=0

-------------------FAIL:[40]---------------------------
UVM_INFO scoreboard.sv(252) @ 1970000: uvm_test_top.env.scb [scoreboard] [1970000] INPUT
UVM_INFO scoreboard.sv(253) @ 1970000: uvm_test_top.env.scb [scoreboard] AWVALID=1 AWREADY=1 AWADDR=12
UVM_INFO scoreboard.sv(254) @ 1970000: uvm_test_top.env.scb [scoreboard] WVALID =0 WREADY =1 WDATA=1913432219 WSTRB=15
UVM_INFO scoreboard.sv(255) @ 1970000: uvm_test_top.env.scb [scoreboard] BVALID =0 BREADY =0
UVM_INFO scoreboard.sv(256) @ 1970000: uvm_test_top.env.scb [scoreboard] ARVALID=1 ARREADY=1 ARADDR=32
UVM_INFO scoreboard.sv(257) @ 1970000: uvm_test_top.env.scb [scoreboard] RVALID =0 RREADY =0
UVM_INFO scoreboard.sv(258) @ 1970000: uvm_test_top.env.scb [scoreboard] [1970000]: REF: WRITE_RESPONSE=0 READ_DATA=0 READ_RESPONSE=0
UVM_INFO scoreboard.sv(259) @ 1970000: uvm_test_top.env.scb [scoreboard] [1970000]: DUT: WRITE_RESPONSE=0 READ_DATA=1852289854 READ_RESPONSE=0

-------------------FAIL:[41]---------------------------
UVM_INFO scoreboard.sv(252) @ 1990000: uvm_test_top.env.scb [scoreboard] [1990000] INPUT
UVM_INFO scoreboard.sv(253) @ 1990000: uvm_test_top.env.scb [scoreboard] AWVALID=1 AWREADY=0 AWADDR=12
UVM_INFO scoreboard.sv(254) @ 1990000: uvm_test_top.env.scb [scoreboard] WVALID =0 WREADY =1 WDATA=3792760136 WSTRB=15
UVM_INFO scoreboard.sv(255) @ 1990000: uvm_test_top.env.scb [scoreboard] BVALID =0 BREADY =0
UVM_INFO scoreboard.sv(256) @ 1990000: uvm_test_top.env.scb [scoreboard] ARVALID=1 ARREADY=0 ARADDR=32
UVM_INFO scoreboard.sv(257) @ 1990000: uvm_test_top.env.scb [scoreboard] RVALID =1 RREADY =0
UVM_INFO scoreboard.sv(258) @ 1990000: uvm_test_top.env.scb [scoreboard] [1990000]: REF: WRITE_RESPONSE=0 READ_DATA=0 READ_RESPONSE=0
UVM_INFO scoreboard.sv(259) @ 1990000: uvm_test_top.env.scb [scoreboard] [1990000]: DUT: WRITE_RESPONSE=0 READ_DATA=991016573 READ_RESPONSE=0

-------------------FAIL:[42]---------------------------
UVM_INFO scoreboard.sv(252) @ 2010000: uvm_test_top.env.scb [scoreboard] [2010000] INPUT
UVM_INFO scoreboard.sv(253) @ 2010000: uvm_test_top.env.scb [scoreboard] AWVALID=1 AWREADY=0 AWADDR=56
UVM_INFO scoreboard.sv(254) @ 2010000: uvm_test_top.env.scb [scoreboard] WVALID =0 WREADY =1 WDATA=2846222358 WSTRB=15
UVM_INFO scoreboard.sv(255) @ 2010000: uvm_test_top.env.scb [scoreboard] BVALID =0 BREADY =1
UVM_INFO scoreboard.sv(256) @ 2010000: uvm_test_top.env.scb [scoreboard] ARVALID=0 ARREADY=0 ARADDR=32
UVM_INFO scoreboard.sv(257) @ 2010000: uvm_test_top.env.scb [scoreboard] RVALID =1 RREADY =0
UVM_INFO scoreboard.sv(258) @ 2010000: uvm_test_top.env.scb [scoreboard] [2010000]: REF: WRITE_RESPONSE=0 READ_DATA=0 READ_RESPONSE=0
UVM_INFO scoreboard.sv(259) @ 2010000: uvm_test_top.env.scb [scoreboard] [2010000]: DUT: WRITE_RESPONSE=0 READ_DATA=991016573 READ_RESPONSE=0

-------------------FAIL:[43]---------------------------
UVM_INFO scoreboard.sv(252) @ 2030000: uvm_test_top.env.scb [scoreboard] [2030000] INPUT
UVM_INFO scoreboard.sv(253) @ 2030000: uvm_test_top.env.scb [scoreboard] AWVALID=1 AWREADY=0 AWADDR=56
UVM_INFO scoreboard.sv(254) @ 2030000: uvm_test_top.env.scb [scoreboard] WVALID =1 WREADY =0 WDATA=3724052703 WSTRB=15
UVM_INFO scoreboard.sv(255) @ 2030000: uvm_test_top.env.scb [scoreboard] BVALID =0 BREADY =1
UVM_INFO scoreboard.sv(256) @ 2030000: uvm_test_top.env.scb [scoreboard] ARVALID=0 ARREADY=0 ARADDR=40
UVM_INFO scoreboard.sv(257) @ 2030000: uvm_test_top.env.scb [scoreboard] RVALID =0 RREADY =1
UVM_INFO scoreboard.sv(258) @ 2030000: uvm_test_top.env.scb [scoreboard] [2030000]: REF: WRITE_RESPONSE=0 READ_DATA=0 READ_RESPONSE=0
UVM_INFO scoreboard.sv(259) @ 2030000: uvm_test_top.env.scb [scoreboard] [2030000]: DUT: WRITE_RESPONSE=0 READ_DATA=991016573 READ_RESPONSE=0

-------------------FAIL:[44]---------------------------
UVM_INFO scoreboard.sv(252) @ 2050000: uvm_test_top.env.scb [scoreboard] [2050000] INPUT
UVM_INFO scoreboard.sv(253) @ 2050000: uvm_test_top.env.scb [scoreboard] AWVALID=1 AWREADY=0 AWADDR=56
UVM_INFO scoreboard.sv(254) @ 2050000: uvm_test_top.env.scb [scoreboard] WVALID =0 WREADY =0 WDATA=270159056 WSTRB=15
UVM_INFO scoreboard.sv(255) @ 2050000: uvm_test_top.env.scb [scoreboard] BVALID =1 BREADY =1
UVM_INFO scoreboard.sv(256) @ 2050000: uvm_test_top.env.scb [scoreboard] ARVALID=0 ARREADY=1 ARADDR=60
UVM_INFO scoreboard.sv(257) @ 2050000: uvm_test_top.env.scb [scoreboard] RVALID =0 RREADY =0
UVM_INFO scoreboard.sv(258) @ 2050000: uvm_test_top.env.scb [scoreboard] [2050000]: REF: WRITE_RESPONSE=0 READ_DATA=0 READ_RESPONSE=0
UVM_INFO scoreboard.sv(259) @ 2050000: uvm_test_top.env.scb [scoreboard] [2050000]: DUT: WRITE_RESPONSE=0 READ_DATA=991016573 READ_RESPONSE=0

-------------------FAIL:[45]---------------------------
UVM_INFO scoreboard.sv(252) @ 2070000: uvm_test_top.env.scb [scoreboard] [2070000] INPUT
UVM_INFO scoreboard.sv(253) @ 2070000: uvm_test_top.env.scb [scoreboard] AWVALID=1 AWREADY=0 AWADDR=56
UVM_INFO scoreboard.sv(254) @ 2070000: uvm_test_top.env.scb [scoreboard] WVALID =1 WREADY =0 WDATA=2573783373 WSTRB=15
UVM_INFO scoreboard.sv(255) @ 2070000: uvm_test_top.env.scb [scoreboard] BVALID =1 BREADY =0
UVM_INFO scoreboard.sv(256) @ 2070000: uvm_test_top.env.scb [scoreboard] ARVALID=1 ARREADY=0 ARADDR=12
UVM_INFO scoreboard.sv(257) @ 2070000: uvm_test_top.env.scb [scoreboard] RVALID =1 RREADY =0
UVM_INFO scoreboard.sv(258) @ 2070000: uvm_test_top.env.scb [scoreboard] [2070000]: REF: WRITE_RESPONSE=0 READ_DATA=0 READ_RESPONSE=0
UVM_INFO scoreboard.sv(259) @ 2070000: uvm_test_top.env.scb [scoreboard] [2070000]: DUT: WRITE_RESPONSE=0 READ_DATA=3724052703 READ_RESPONSE=0

-------------------FAIL:[46]---------------------------
UVM_INFO scoreboard.sv(252) @ 2090000: uvm_test_top.env.scb [scoreboard] [2090000] INPUT
UVM_INFO scoreboard.sv(253) @ 2090000: uvm_test_top.env.scb [scoreboard] AWVALID=1 AWREADY=0 AWADDR=56
UVM_INFO scoreboard.sv(254) @ 2090000: uvm_test_top.env.scb [scoreboard] WVALID =1 WREADY =0 WDATA=2573783373 WSTRB=15
UVM_INFO scoreboard.sv(255) @ 2090000: uvm_test_top.env.scb [scoreboard] BVALID =0 BREADY =1
UVM_INFO scoreboard.sv(256) @ 2090000: uvm_test_top.env.scb [scoreboard] ARVALID=1 ARREADY=0 ARADDR=56
UVM_INFO scoreboard.sv(257) @ 2090000: uvm_test_top.env.scb [scoreboard] RVALID =0 RREADY =1
UVM_INFO scoreboard.sv(258) @ 2090000: uvm_test_top.env.scb [scoreboard] [2090000]: REF: WRITE_RESPONSE=0 READ_DATA=0 READ_RESPONSE=0
UVM_INFO scoreboard.sv(259) @ 2090000: uvm_test_top.env.scb [scoreboard] [2090000]: DUT: WRITE_RESPONSE=0 READ_DATA=3724052703 READ_RESPONSE=0

-------------------FAIL:[47]---------------------------
UVM_INFO scoreboard.sv(252) @ 2110000: uvm_test_top.env.scb [scoreboard] [2110000] INPUT
UVM_INFO scoreboard.sv(253) @ 2110000: uvm_test_top.env.scb [scoreboard] AWVALID=1 AWREADY=1 AWADDR=56
UVM_INFO scoreboard.sv(254) @ 2110000: uvm_test_top.env.scb [scoreboard] WVALID =1 WREADY =1 WDATA=2573783373 WSTRB=15
UVM_INFO scoreboard.sv(255) @ 2110000: uvm_test_top.env.scb [scoreboard] BVALID =0 BREADY =1
UVM_INFO scoreboard.sv(256) @ 2110000: uvm_test_top.env.scb [scoreboard] ARVALID=1 ARREADY=1 ARADDR=56
UVM_INFO scoreboard.sv(257) @ 2110000: uvm_test_top.env.scb [scoreboard] RVALID =0 RREADY =1
UVM_INFO scoreboard.sv(258) @ 2110000: uvm_test_top.env.scb [scoreboard] [2110000]: REF: WRITE_RESPONSE=0 READ_DATA=0 READ_RESPONSE=0
UVM_INFO scoreboard.sv(259) @ 2110000: uvm_test_top.env.scb [scoreboard] [2110000]: DUT: WRITE_RESPONSE=0 READ_DATA=3724052703 READ_RESPONSE=0

-------------------FAIL:[48]---------------------------
UVM_INFO scoreboard.sv(252) @ 2130000: uvm_test_top.env.scb [scoreboard] [2130000] INPUT
UVM_INFO scoreboard.sv(253) @ 2130000: uvm_test_top.env.scb [scoreboard] AWVALID=1 AWREADY=0 AWADDR=56
UVM_INFO scoreboard.sv(254) @ 2130000: uvm_test_top.env.scb [scoreboard] WVALID =1 WREADY =0 WDATA=2573783373 WSTRB=15
UVM_INFO scoreboard.sv(255) @ 2130000: uvm_test_top.env.scb [scoreboard] BVALID =0 BREADY =0
UVM_INFO scoreboard.sv(256) @ 2130000: uvm_test_top.env.scb [scoreboard] ARVALID=1 ARREADY=0 ARADDR=56
UVM_INFO scoreboard.sv(257) @ 2130000: uvm_test_top.env.scb [scoreboard] RVALID =1 RREADY =0
